(1625042532.669237) can0 0CFF72B1#E0012733007D0100
(1625042532.669561) can0 0CFF72B5#E0012733007D0100
(1625042532.670133) can0 0CFF72BB#E0012733007D0100
(1625042532.670689) can0 0CFF72D7#E0012733007D0100
(1625042532.671239) can0 0CFF72D8#E0012733007D0100
(1625042532.671814) can0 0CFF72F3#E0014C34007D0100
(1625042532.683481) can0 18EFA8EF#FCFFFF00FFFFFFFF
(1625042532.684060) can0 18EFADEF#FCFFFF00FFFFFFFF
(1625042532.684622) can0 18EFB6EF#FFFFFFFFFFFFFFFF
(1625042532.685209) can0 18EFB7EF#FFFFFFFFFFFFFFFF
(1625042532.685787) can0 18EFB8EF#FFFFFFFFFFFFFFFF
(1625042532.686370) can0 18EFBEEF#FFFFFFFFFFFFFFFF
(1625042532.689066) can0 0CFF72B1#E0012733007D0100
(1625042532.689561) can0 0CFF72B5#E0012733007D0100
(1625042532.690116) can0 0CFF72BB#E0012733007D0100
(1625042532.690667) can0 0CFF72D7#E0012733007D0100
(1625042532.691234) can0 0CFF72D8#E0012733007D0100
(1625042532.691810) can0 0CFF72F3#E0014C34007D0100
(1625042532.709012) can0 0CFF72B1#E0012733007D0100
(1625042532.709544) can0 0CFF72B5#E0012733007D0100
(1625042532.710132) can0 0CFF72BB#E0012733007D0100
(1625042532.710687) can0 0CFF72D7#E0012733007D0100
(1625042532.711232) can0 0CFF72D8#E0012733007D0100
(1625042532.711797) can0 0CFF72F3#E0014C34007D0100
(1625042532.723430) can0 0CFFEEC3#B22CCBB2FCDFF8FF
(1625042532.729020) can0 0CFF72B1#E0012733007D0100
(1625042532.729549) can0 0CFF72B5#E0012733007D0100
(1625042532.730122) can0 0CFF72BB#E0012733007D0100
(1625042532.730689) can0 0CFF72D7#E0012733007D0100
(1625042532.731234) can0 0CFF72D8#E0012733007D0100
(1625042532.731864) can0 0CFF72F3#E0014C34007D0100
(1625042532.749020) can0 0CFF72B1#E0012733007D0100
(1625042532.749578) can0 0CFF72B5#E0012733007D0100
(1625042532.750120) can0 0CFF72BB#E0012733007D0100
(1625042532.750686) can0 0CFF72D7#E0012733007D0100
(1625042532.751240) can0 0CFF72D8#E0012733007D0100
(1625042532.751811) can0 0CFF72F3#E0014C34007D0100
(1625042532.752441) can0 0CFF73B1#EB99EB99D03E0000
(1625042532.752916) can0 0CFF73B5#EB99EB99D03E0000
(1625042532.753462) can0 0CFF73BB#EB99EB99D03E0000
(1625042532.754063) can0 0CFF73D7#EB99EB99D03E0000
(1625042532.754590) can0 0CFF73D8#EB99EB99D03E0000
(1625042532.755149) can0 0CFF73F3#8D9A8D9A704E0000
(1625042532.755677) can0 0CFF77B1#9A199A1920000000
(1625042532.756254) can0 0CFF77B5#9A199A1920000000
(1625042532.756794) can0 0CFF77BB#9A199A1920000000
(1625042532.757347) can0 0CFF77D7#9A199A1920000000
(1625042532.757913) can0 0CFF77D8#9A199A1920000000
(1625042532.758466) can0 0CFF77F3#9A199A1920000000
(1625042532.759070) can0 18FFD6B1#1483DE84DE846040
(1625042532.759579) can0 18FFD6B5#1483DE84DE846040
(1625042532.760122) can0 18FFD6BB#1483DE84DE846040
(1625042532.760693) can0 18FFD6D7#1483DE84DE846040
(1625042532.761409) can0 18FFD6D8#1483DE84DE846040
(1625042532.761818) can0 18FFD6F3#60829F839F830050
(1625042532.762353) can0 18FFD9B1#1987EA88EA88403D
(1625042532.762914) can0 18FFD9B5#1987EA88EA88403D
(1625042532.763443) can0 18FFD9BB#1987EA88EA88403D
(1625042532.763993) can0 18FFD9D7#1987EA88EA88403D
(1625042532.764555) can0 18FFD9D8#1987EA88EA88403D
(1625042532.765082) can0 18FFD9F3#0A88C68AC68AE04C
(1625042532.769007) can0 0CFF72B1#E0012733007D0100
(1625042532.769556) can0 0CFF72B5#E0012733007D0100
(1625042532.770105) can0 0CFF72BB#E0012733007D0100
(1625042532.770664) can0 0CFF72D7#E0012733007D0100
(1625042532.771229) can0 0CFF72D8#E0012733007D0100
(1625042532.771946) can0 0CFF72F3#E0014C34007D0100
(1625042532.783458) can0 18EFA8EF#FCFFFF00FFFFFFFF
(1625042532.784068) can0 18EFADEF#FCFFFF00FFFFFFFF
(1625042532.784610) can0 18EFB6EF#FFFFFFFFFFFFFFFF
(1625042532.785202) can0 18EFB7EF#FFFFFFFFFFFFFFFF
(1625042532.785776) can0 18EFB8EF#FFFFFFFFFFFFFFFF
(1625042532.786357) can0 18EFBEEF#FFFFFFFFFFFFFFFF
(1625042532.789000) can0 0CFF72B1#E0012733007D0100
(1625042532.789543) can0 0CFF72B5#E0012733007D0100
(1625042532.790114) can0 0CFF72BB#E0012733007D0100
(1625042532.790677) can0 0CFF72D7#E0012733007D0100
(1625042532.791234) can0 0CFF72D8#E0012733007D0100
(1625042532.791798) can0 0CFF72F3#E0014C34007D0100
(1625042532.808999) can0 0CFF72B1#E0012733007D0100
(1625042532.809550) can0 0CFF72B5#E0012733007D0100
(1625042532.810117) can0 0CFF72BB#E0012733007D0100
(1625042532.810678) can0 0CFF72D7#E0012733007D0100
(1625042532.811224) can0 0CFF72D8#E0012733007D0100
(1625042532.811800) can0 0CFF72F3#E0014C34007D0100
(1625042532.823406) can0 0CFFEEC3#B22CCBB2FCDFF8FF
(1625042532.829004) can0 0CFF72B1#E0012733007D0100
(1625042532.829545) can0 0CFF72B5#E0012733007D0100
(1625042532.830107) can0 0CFF72BB#E0012733007D0100
(1625042532.830704) can0 0CFF72D7#E0012733007D0100
(1625042532.831227) can0 0CFF72D8#E0012733007D0100
(1625042532.831798) can0 0CFF72F3#E0014C34007D0100
(1625042532.848995) can0 0CFF72B1#E0012733007D0100
(1625042532.849559) can0 0CFF72B5#E0012733007D0100
(1625042532.850140) can0 0CFF72BB#E0012733007D0100
(1625042532.850669) can0 0CFF72D7#E0012733007D0100
(1625042532.851226) can0 0CFF72D8#E0012733007D0100
(1625042532.851797) can0 0CFF72F3#E0014C34007D0100
(1625042532.852345) can0 0CFF73B1#EB99EB99D03E0000
(1625042532.852924) can0 0CFF73B5#EB99EB99D03E0000
(1625042532.853458) can0 0CFF73BB#EB99EB99D03E0000
(1625042532.854075) can0 0CFF73D7#EB99EB99D03E0000
(1625042532.854581) can0 0CFF73D8#EB99EB99D03E0000
(1625042532.855178) can0 0CFF73F3#8D9A8D9A704E0000
(1625042532.855676) can0 0CFF77B1#9A199A1920000000
(1625042532.856232) can0 0CFF77B5#9A199A1920000000
(1625042532.856797) can0 0CFF77BB#9A199A1920000000
(1625042532.857344) can0 0CFF77D7#9A199A1920000000
(1625042532.857924) can0 0CFF77D8#9A199A1920000000
(1625042532.858460) can0 0CFF77F3#9A199A1920000000
(1625042532.859074) can0 0CFF78B1#2C012C012C010300
(1625042532.859578) can0 0CFF78B5#2C012C012C010300
(1625042532.860141) can0 0CFF78BB#2C012C012C010300
(1625042532.860711) can0 0CFF78D7#2C012C012C010300
(1625042532.861271) can0 0CFF78D8#2C012C012C010300
(1625042532.861846) can0 0CFF78F3#2C012C012C010300
(1625042532.862429) can0 18FF70AD#0400008026000000
(1625042532.862964) can0 18FFD6B1#1483DE84DE846040
(1625042532.863531) can0 18FFD6B5#1483DE84DE846040
(1625042532.864081) can0 18FFD6BB#1483DE84DE846040
(1625042532.864632) can0 18FFD6D7#1483DE84DE846040
(1625042532.865180) can0 18FFD6D8#1483DE84DE846040
(1625042532.865766) can0 18FFD6F3#60829F839F830050
(1625042532.866299) can0 18FFD9B1#1987EA88EA88403D
(1625042532.866849) can0 18FFD9B5#1987EA88EA88403D
(1625042532.867383) can0 18FFD9BB#1987EA88EA88403D
(1625042532.867932) can0 18FFD9D7#1987EA88EA88403D
(1625042532.868488) can0 18FFD9D8#1987EA88EA88403D
(1625042532.869073) can0 0CFF72B1#E0012733007D0100
(1625042532.869593) can0 0CFF72B5#E0012733007D0100
(1625042532.870150) can0 0CFF72BB#E0012733007D0100
(1625042532.870718) can0 0CFF72D7#E0012733007D0100
(1625042532.871269) can0 0CFF72D8#E0012733007D0100
(1625042532.871838) can0 0CFF72F3#E0014C34007D0100
(1625042532.872385) can0 18FFD9F3#0A88C68AC68AE04C
(1625042532.872935) can0 18FFDFB1#D084A08CA08C0000
(1625042532.873501) can0 18FFDFB5#D084A08CA08C0000
(1625042532.874076) can0 18FFDFBB#D084A08CA08C0000
(1625042532.874701) can0 18FFDFD7#B09AA08CA08C0000
(1625042532.875184) can0 18FFDFD8#B09AA08CA08C0000
(1625042532.875738) can0 18FFDFF3#D084A08CA08C0000
(1625042532.876329) can0 18FFE0B1#0000000000000000
(1625042532.876925) can0 18FFE0B5#0000000000000000
(1625042532.877511) can0 18FFE0BB#0000000000000000
(1625042532.878112) can0 18FFE0D7#0000000000000000
(1625042532.878684) can0 18FFE0D8#0000000000000000
(1625042532.879280) can0 18FFE0F3#0000000000000000
(1625042532.879876) can0 18FFE1B1#0000000000000000
(1625042532.880462) can0 18FFE1B5#0000000000000000
(1625042532.881076) can0 18FFE1BB#0000000000000000
(1625042532.881640) can0 18FFE1D7#0000000000000000
(1625042532.882246) can0 18FFE1D8#0000000000000000
(1625042532.882827) can0 18FFE1F3#0000000000000000
(1625042532.883454) can0 18EFA8EF#FCFFFF00FFFFFFFF
(1625042532.884076) can0 18EFADEF#FCFFFF00FFFFFFFF
(1625042532.884620) can0 18EFB6EF#FFFFFFFFFFFFFFFF
(1625042532.885206) can0 18EFB7EF#FFFFFFFFFFFFFFFF
(1625042532.885786) can0 18EFB8EF#FFFFFFFFFFFFFFFF
(1625042532.886361) can0 18EFBEEF#FFFFFFFFFFFFFFFF
(1625042532.889003) can0 0CFF72B1#E0012733007D0100
(1625042532.889551) can0 0CFF72B5#E0012733007D0100
(1625042532.890121) can0 0CFF72BB#E0012733007D0100
(1625042532.890689) can0 0CFF72D7#E0012733007D0100
(1625042532.891245) can0 0CFF72D8#E0012733007D0100
(1625042532.891810) can0 0CFF72F3#E0014C34007D0100
(1625042532.909011) can0 0CFF72B1#E0012733007D0100
(1625042532.909557) can0 0CFF72B5#E0012733007D0100
(1625042532.910107) can0 0CFF72BB#E0012733007D0100
(1625042532.910669) can0 0CFF72D7#E0012733007D0100
(1625042532.911227) can0 0CFF72D8#E0012733007D0100
(1625042532.911784) can0 0CFF72F3#E0014C34007D0100
(1625042532.923380) can0 0CFFEEC3#B22CCBB2FCDFF8FF
(1625042532.928991) can0 0CFF72B1#E0012733007D0100
(1625042532.929561) can0 0CFF72B5#E0012733007D0100
(1625042532.930110) can0 0CFF72BB#E0012733007D0100
(1625042532.930660) can0 0CFF72D7#E0012733007D0100
(1625042532.931236) can0 0CFF72D8#E0012733007D0100
(1625042532.931790) can0 0CFF72F3#E0014C34007D0100
(1625042532.949001) can0 0CFF72B1#E0012733007D0100
(1625042532.949542) can0 0CFF72B5#E0012733007D0100
(1625042532.950112) can0 0CFF72BB#E0012733007D0100
(1625042532.950664) can0 0CFF72D7#E0012733007D0100
(1625042532.951233) can0 0CFF72D8#E0012733007D0100
(1625042532.951793) can0 0CFF72F3#E0014C34007D0100
(1625042532.952347) can0 0CFF73B1#EB99EB99D03E0000
(1625042532.953003) can0 0CFF73B5#EB99EB99D03E0000
(1625042532.953461) can0 0CFF73BB#EB99EB99D03E0000
(1625042532.954010) can0 0CFF73D7#EB99EB99D03E0000
(1625042532.954572) can0 0CFF73D8#EB99EB99D03E0000
(1625042532.955127) can0 0CFF73F3#8D9A8D9A704E0000
(1625042532.955685) can0 0CFF77B1#9A199A1920000000
(1625042532.956247) can0 0CFF77B5#9A199A1920000000
(1625042532.956781) can0 0CFF77BB#9A199A1920000000
(1625042532.957336) can0 0CFF77D7#9A199A1920000000
(1625042532.957918) can0 0CFF77D8#9A199A1920000000
(1625042532.958471) can0 0CFF77F3#9A199A1920000000
(1625042532.959020) can0 18FFD6B1#1483DE84DE846040
(1625042532.959570) can0 18FFD6B5#1483DE84DE846040
(1625042532.960124) can0 18FFD6BB#1483DE84DE846040
(1625042532.960687) can0 18FFD6D7#1483DE84DE846040
(1625042532.961242) can0 18FFD6D8#1483DE84DE846040
(1625042532.961812) can0 18FFD6F3#60829F839F830050
(1625042532.962356) can0 18FFD9B1#1987EA88EA88403D
(1625042532.962897) can0 18FFD9B5#1987EA88EA88403D
(1625042532.963437) can0 18FFD9BB#1987EA88EA88403D
(1625042532.963993) can0 18FFD9D7#1987EA88EA88403D
(1625042532.964545) can0 18FFD9D8#1987EA88EA88403D
(1625042532.965097) can0 18FFD9F3#0A88C68AC68AE04C
(1625042532.969007) can0 0CFF72B1#E0012733007D0100
(1625042532.969543) can0 0CFF72B5#E0012733007D0100
(1625042532.970117) can0 0CFF72BB#E0012733007D0100
(1625042532.970678) can0 0CFF72D7#E0012733007D0100
(1625042532.971235) can0 0CFF72D8#E0012733007D0100
(1625042532.971800) can0 0CFF72F3#E0014C34007D0100
(1625042532.983415) can0 18EFA8EF#FCFFFF00FFFFFFFF
(1625042532.983989) can0 18EFADEF#FCFFFF00FFFFFFFF
(1625042532.984570) can0 18EFB6EF#FFFFFFFFFFFFFFFF
(1625042532.985155) can0 18EFB7EF#FFFFFFFFFFFFFFFF
(1625042532.985719) can0 18EFB8EF#FFFFFFFFFFFFFFFF
(1625042532.986318) can0 18EFBEEF#FFFFFFFFFFFFFFFF
(1625042532.988990) can0 0CFF72B1#E0012733007D0100
(1625042532.989566) can0 0CFF72B5#E0012733007D0100
(1625042532.990109) can0 0CFF72BB#E0012733007D0100
(1625042532.990669) can0 0CFF72D7#E0012733007D0100
(1625042532.991225) can0 0CFF72D8#E0012733007D0100
(1625042532.991786) can0 0CFF72F3#E0014C34007D0100
(1625042533.009004) can0 0CFF72B1#E0012733007D0100
(1625042533.009548) can0 0CFF72B5#E0012733007D0100
(1625042533.010121) can0 0CFF72BB#E0012733007D0100
(1625042533.010668) can0 0CFF72D7#E0012733007D0100
(1625042533.011241) can0 0CFF72D8#E0012733007D0100
(1625042533.011799) can0 0CFF72F3#E0014C34007D0100
(1625042533.023368) can0 0CFFEEC3#B22CCBB2FCDFF8FF
(1625042533.028995) can0 0CFF72B1#E0012733007D0100
(1625042533.029541) can0 0CFF72B5#E0012733007D0100
(1625042533.030103) can0 0CFF72BB#E0012733007D0100
(1625042533.030665) can0 0CFF72D7#E0012733007D0100
(1625042533.031262) can0 0CFF72D8#E0012733007D0100
(1625042533.031780) can0 0CFF72F3#E0014C34007D0100
(1625042533.048999) can0 0CFF72B1#E0012733007D0100
(1625042533.049554) can0 0CFF72B5#E0012733007D0100
(1625042533.050126) can0 0CFF72BB#E0012733007D0100
(1625042533.050673) can0 0CFF72D7#E0012733007D0100
(1625042533.051242) can0 0CFF72D8#E0012733007D0100
(1625042533.051803) can0 0CFF72F3#E0014C34007D0100
(1625042533.052357) can0 0CFF73B1#EB99EB99D03E0000
(1625042533.052921) can0 0CFF73B5#EB99EB99D03E0000
(1625042533.053483) can0 0CFF73BB#EB99EB99D03E0000
(1625042533.054017) can0 0CFF73D7#EB99EB99D03E0000
(1625042533.054583) can0 0CFF73D8#EB99EB99D03E0000
(1625042533.055129) can0 0CFF73F3#8D9A8D9A704E0000
(1625042533.055808) can0 0CFF77B1#9A199A1920000000
(1625042533.056240) can0 0CFF77B5#9A199A1920000000
(1625042533.056787) can0 0CFF77BB#9A199A1920000000
(1625042533.057350) can0 0CFF77D7#9A199A1920000000
(1625042533.057909) can0 0CFF77D8#9A199A1920000000
(1625042533.058475) can0 0CFF77F3#9A199A1920000000
(1625042533.059015) can0 18FFD6B1#1483DE84DE846040
(1625042533.059587) can0 18FFD6B5#1483DE84DE846040
(1625042533.060136) can0 18FFD6BB#1483DE84DE846040
(1625042533.060699) can0 18FFD6D7#1483DE84DE846040
(1625042533.061256) can0 18FFD6D8#1483DE84DE846040
(1625042533.061829) can0 18FFD6F3#60829F839F830050
(1625042533.062351) can0 18FFD9B1#1987EA88EA88403D
(1625042533.062902) can0 18FFD9B5#1987EA88EA88403D
(1625042533.063452) can0 18FFD9BB#1987EA88EA88403D
(1625042533.063988) can0 18FFD9D7#1987EA88EA88403D
(1625042533.064541) can0 18FFD9D8#1987EA88EA88403D
(1625042533.065105) can0 18FFD9F3#0A88C68AC68AE04C
(1625042533.069009) can0 0CFF72B1#E0012733007D0100
(1625042533.069541) can0 0CFF72B5#E0012733007D0100
(1625042533.070109) can0 0CFF72BB#E0012733007D0100
(1625042533.070670) can0 0CFF72D7#E0012733007D0100
(1625042533.071226) can0 0CFF72D8#E0012733007D0100
(1625042533.071787) can0 0CFF72F3#E0014C34007D0100
(1625042533.083416) can0 18EFA8EF#FCFFFF00FFFFFFFF
(1625042533.083984) can0 18EFADEF#FCFFFF00FFFFFFFF
(1625042533.084569) can0 18EFB6EF#FFFFFFFFFFFFFFFF
(1625042533.085150) can0 18EFB7EF#FFFFFFFFFFFFFFFF
(1625042533.085733) can0 18EFB8EF#FFFFFFFFFFFFFFFF
(1625042533.086303) can0 18EFBEEF#FFFFFFFFFFFFFFFF
(1625042533.088994) can0 0CFF72B1#E0012733007D0100
(1625042533.089559) can0 0CFF72B5#E0012733007D0100
(1625042533.090110) can0 0CFF72BB#E0012733007D0100
(1625042533.090673) can0 0CFF72D7#E0012733007D0100
(1625042533.091229) can0 0CFF72D8#E0012733007D0100
(1625042533.091788) can0 0CFF72F3#E0014C34007D0100
(1625042533.109004) can0 0CFF72B1#E0012733007D0100
(1625042533.109592) can0 0CFF72B5#E0012733007D0100
(1625042533.110107) can0 0CFF72BB#E0012733007D0100
(1625042533.110676) can0 0CFF72D7#E0012733007D0100
(1625042533.111232) can0 0CFF72D8#E0012733007D0100
(1625042533.111781) can0 0CFF72F3#E0014C34007D0100
(1625042533.123353) can0 0CFFEEC3#B22CCBB2FCDFF8FF
(1625042533.129018) can0 0CFF72B1#E0012733007D0100
(1625042533.129544) can0 0CFF72B5#E0012733007D0100
(1625042533.130110) can0 0CFF72BB#E0012733007D0100
(1625042533.130679) can0 0CFF72D7#E0012733007D0100
(1625042533.131235) can0 0CFF72D8#E0012733007D0100
(1625042533.131786) can0 0CFF72F3#E0014C34007D0100
(1625042533.149006) can0 0CFF72B1#E0012733007D0100
(1625042533.149556) can0 0CFF72B5#E0012733007D0100
(1625042533.150119) can0 0CFF72BB#E0012733007D0100
(1625042533.150672) can0 0CFF72D7#E0012733007D0100
(1625042533.151239) can0 0CFF72D8#E0012733007D0100
(1625042533.151789) can0 0CFF72F3#E0014C34007D0100
(1625042533.152363) can0 0CFF73B1#EB99EB99D03E0000
(1625042533.152901) can0 0CFF73B5#EB99EB99D03E0000
(1625042533.153492) can0 0CFF73BB#EB99EB99D03E0000
(1625042533.154027) can0 0CFF73D7#EB99EB99D03E0000
(1625042533.154590) can0 0CFF73D8#EB99EB99D03E0000
(1625042533.155133) can0 0CFF73F3#8D9A8D9A704E0000
(1625042533.155681) can0 0CFF77B1#9A199A1920000000
(1625042533.156247) can0 0CFF77B5#9A199A1920000000
(1625042533.156797) can0 0CFF77BB#9A199A1920000000
(1625042533.157347) can0 0CFF77D7#9A199A1920000000
(1625042533.157911) can0 0CFF77D8#9A199A1920000000
(1625042533.158503) can0 0CFF77F3#9A199A1920000000
(1625042533.159042) can0 18FFD6B1#1483DE84DE846040
(1625042533.159595) can0 18FFD6B5#1483DE84DE846040
(1625042533.160140) can0 18FFD6BB#1483DE84DE846040
(1625042533.160698) can0 18FFD6D7#1483DE84DE846040
(1625042533.161267) can0 18FFD6D8#1483DE84DE846040
(1625042533.161829) can0 18FFD6F3#60829F839F830050
(1625042533.162375) can0 18FFD9B1#1987EA88EA88403D
(1625042533.162925) can0 18FFD9B5#1987EA88EA88403D
(1625042533.163471) can0 18FFD9BB#1987EA88EA88403D
(1625042533.164014) can0 18FFD9D7#1987EA88EA88403D
(1625042533.164547) can0 18FFD9D8#1987EA88EA88403D
(1625042533.165125) can0 18FFD9F3#0A88C68AC68AE04C
(1625042533.169002) can0 0CFF72B1#E0012733007D0100
(1625042533.169559) can0 0CFF72B5#E0012733007D0100
(1625042533.170118) can0 0CFF72BB#E0012733007D0100
(1625042533.170677) can0 0CFF72D7#E0012733007D0100
(1625042533.171242) can0 0CFF72D8#E0012733007D0100
(1625042533.171787) can0 0CFF72F3#E0014C34007D0100
(1625042533.183363) can0 18EFA8EF#FCFFFF00FFFFFFFF
(1625042533.183941) can0 18EFADEF#FCFFFF00FFFFFFFF
(1625042533.184521) can0 18EFB6EF#FFFFFFFFFFFFFFFF
(1625042533.185120) can0 18EFB7EF#FFFFFFFFFFFFFFFF
(1625042533.185688) can0 18EFB8EF#FFFFFFFFFFFFFFFF
(1625042533.186266) can0 18EFBEEF#FFFFFFFFFFFFFFFF
(1625042533.188996) can0 0CFF72B1#E0012733007D0100
(1625042533.189553) can0 0CFF72B5#E0012733007D0100
(1625042533.190119) can0 0CFF72BB#E0012733007D0100
(1625042533.190668) can0 0CFF72D7#E0012733007D0100
(1625042533.191244) can0 0CFF72D8#E0012733007D0100
(1625042533.191785) can0 0CFF72F3#E0014C34007D0100
(1625042533.209000) can0 0CFF72B1#E0012733007D0100
(1625042533.209548) can0 0CFF72B5#E0012733007D0100
(1625042533.210122) can0 0CFF72BB#E0012733007D0100
(1625042533.210681) can0 0CFF72D7#E0012733007D0100
(1625042533.211227) can0 0CFF72D8#E0012733007D0100
(1625042533.211797) can0 0CFF72F3#E0014C34007D0100
(1625042533.223350) can0 0CFFEEC3#B22CCBB2FCDFF8FF
(1625042533.229001) can0 0CFF72B1#E0012733007D0100
(1625042533.229551) can0 0CFF72B5#E0012733007D0100
(1625042533.230125) can0 0CFF72BB#E0012733007D0100
(1625042533.230674) can0 0CFF72D7#E0012733007D0100
(1625042533.231230) can0 0CFF72D8#E0012733007D0100
(1625042533.231909) can0 0CFF72F3#E0014C34007D0100
(1625042533.249006) can0 0CFF72B1#E0012733007D0100
(1625042533.249560) can0 0CFF72B5#E0012733007D0100
(1625042533.250126) can0 0CFF72BB#E0012733007D0100
(1625042533.250678) can0 0CFF72D7#E0012733007D0100
(1625042533.251253) can0 0CFF72D8#E0012733007D0100
(1625042533.251790) can0 0CFF72F3#E0014C34007D0100
(1625042533.252363) can0 0CFF73B1#EB99EB99D03E0000
(1625042533.252907) can0 0CFF73B5#EB99EB99D03E0000
(1625042533.253474) can0 0CFF73BB#EB99EB99D03E0000
(1625042533.254030) can0 0CFF73D7#EB99EB99D03E0000
(1625042533.254583) can0 0CFF73D8#EB99EB99D03E0000
(1625042533.255141) can0 0CFF73F3#8D9A8D9A704E0000
(1625042533.255694) can0 0CFF77B1#9A199A1920000000
(1625042533.256297) can0 0CFF77B5#9A199A1920000000
(1625042533.256791) can0 0CFF77BB#9A199A1920000000
(1625042533.257350) can0 0CFF77D7#9A199A1920000000
(1625042533.257916) can0 0CFF77D8#9A199A1920000000
(1625042533.258475) can0 0CFF77F3#9A199A1920000000
(1625042533.259031) can0 18FFD6B1#1483DE84DE846040
(1625042533.259582) can0 18FFD6B5#1483DE84DE846040
(1625042533.260133) can0 18FFD6BB#1483DE84DE846040
(1625042533.260696) can0 18FFD6D7#1483DE84DE846040
(1625042533.261276) can0 18FFD6D8#1483DE84DE846040
(1625042533.261811) can0 18FFD6F3#60829F839F830050
(1625042533.262361) can0 18FFD9B1#1987EA88EA88403D
(1625042533.262916) can0 18FFD9B5#1987EA88EA88403D
(1625042533.263446) can0 18FFD9BB#1987EA88EA88403D
(1625042533.264002) can0 18FFD9D7#1987EA88EA88403D
(1625042533.264554) can0 18FFD9D8#1987EA88EA88403D
(1625042533.265129) can0 18FFD9F3#0A88C68AC68AE04C
(1625042533.269005) can0 0CFF72B1#E0012733007D0100
(1625042533.269553) can0 0CFF72B5#E0012733007D0100
(1625042533.270128) can0 0CFF72BB#E0012733007D0100
(1625042533.270667) can0 0CFF72D7#E0012733007D0100
(1625042533.271233) can0 0CFF72D8#E0012733007D0100
(1625042533.271804) can0 0CFF72F3#E0014C34007D0100
(1625042533.283364) can0 18EFA8EF#FCFFFF00FFFFFFFF
(1625042533.283923) can0 18EFADEF#FCFFFF00FFFFFFFF
(1625042533.284509) can0 18EFB6EF#FFFFFFFFFFFFFFFF
(1625042533.285130) can0 18EFB7EF#FFFFFFFFFFFFFFFF
(1625042533.285711) can0 18EFB8EF#FFFFFFFFFFFFFFFF
(1625042533.286262) can0 18EFBEEF#FFFFFFFFFFFFFFFF
(1625042533.289021) can0 0CFF72B1#E0012733007D0100
(1625042533.289559) can0 0CFF72B5#E0012733007D0100
(1625042533.290137) can0 0CFF72BB#E0012733007D0100
(1625042533.290676) can0 0CFF72D7#E0012733007D0100
(1625042533.291232) can0 0CFF72D8#E0012733007D0100
(1625042533.291790) can0 0CFF72F3#E0014C34007D0100
(1625042533.309019) can0 0CFF72B1#E0012733007D0100
(1625042533.309552) can0 0CFF72B5#E0012733007D0100
(1625042533.310172) can0 0CFF72BB#E0012733007D0100
(1625042533.310686) can0 0CFF72D7#E0012733007D0100
(1625042533.311239) can0 0CFF72D8#E0012733007D0100
(1625042533.311799) can0 0CFF72F3#E0014C34007D0100
(1625042533.323336) can0 0CFFEEC3#B22CCBB2FCDFF8FF
(1625042533.328999) can0 0CFF72B1#E0012733007D0100
(1625042533.329553) can0 0CFF72B5#E0012733007D0100
(1625042533.330137) can0 0CFF72BB#E0012733007D0100
(1625042533.330678) can0 0CFF72D7#E0012733007D0100
(1625042533.331237) can0 0CFF72D8#E0012733007D0100
(1625042533.331793) can0 0CFF72F3#E0014C34007D0100
(1625042533.348998) can0 0CFF72B1#E0012733007D0100
(1625042533.349565) can0 0CFF72B5#E0012733007D0100
(1625042533.350141) can0 0CFF72BB#E0012733007D0100
(1625042533.350680) can0 0CFF72D7#E0012733007D0100
(1625042533.351246) can0 0CFF72D8#E0012733007D0100
(1625042533.351787) can0 0CFF72F3#E0014C34007D0100
(1625042533.352366) can0 0CFF73B1#EB99EB99D03E0000
(1625042533.352909) can0 0CFF73B5#EB99EB99D03E0000
(1625042533.353460) can0 0CFF73BB#EB99EB99D03E0000
(1625042533.354027) can0 0CFF73D7#EB99EB99D03E0000
(1625042533.354588) can0 0CFF73D8#EB99EB99D03E0000
(1625042533.355144) can0 0CFF73F3#8D9A8D9A704E0000
(1625042533.355681) can0 0CFF77B1#9A199A1920000000
(1625042533.356240) can0 0CFF77B5#9A199A1920000000
(1625042533.356797) can0 0CFF77BB#9A199A1920000000
(1625042533.357365) can0 0CFF77D7#9A199A1920000000
(1625042533.357912) can0 0CFF77D8#9A199A1920000000
(1625042533.358472) can0 0CFF77F3#9A199A1920000000
(1625042533.359064) can0 18FFD6B1#1483DE84DE846040
(1625042533.359585) can0 18FFD6B5#1483DE84DE846040
(1625042533.360142) can0 18FFD6BB#1483DE84DE846040
(1625042533.360692) can0 18FFD6D7#1483DE84DE846040
(1625042533.361249) can0 18FFD6D8#1483DE84DE846040
(1625042533.361823) can0 18FFD6F3#60829F839F830050
(1625042533.362366) can0 18FFD9B1#1987EA88EA88403D
(1625042533.362912) can0 18FFD9B5#1987EA88EA88403D
(1625042533.363452) can0 18FFD9BB#1987EA88EA88403D
(1625042533.364047) can0 18FFD9D7#1987EA88EA88403D
(1625042533.364536) can0 18FFD9D8#1987EA88EA88403D
(1625042533.365142) can0 18FFD9F3#0A88C68AC68AE04C
(1625042533.369004) can0 0CFF72B1#E0012733007D0100
(1625042533.369556) can0 0CFF72B5#E0012733007D0100
(1625042533.370143) can0 0CFF72BB#E0012733007D0100
(1625042533.370683) can0 0CFF72D7#E0012733007D0100
(1625042533.371242) can0 0CFF72D8#E0012733007D0100
(1625042533.371800) can0 0CFF72F3#E0014C34007D0100
(1625042533.383363) can0 18EFA8EF#FCFFFF00FFFFFFFF
(1625042533.383927) can0 18EFADEF#FCFFFF00FFFFFFFF
(1625042533.384526) can0 18EFB6EF#FFFFFFFFFFFFFFFF
(1625042533.385145) can0 18EFB7EF#FFFFFFFFFFFFFFFF
(1625042533.385668) can0 18EFB8EF#FFFFFFFFFFFFFFFF
(1625042533.386251) can0 18EFBEEF#FFFFFFFFFFFFFFFF
(1625042533.389006) can0 0CFF72B1#E0012733007D0100
(1625042533.389559) can0 0CFF72B5#E0012733007D0100
(1625042533.390145) can0 0CFF72BB#E0012733007D0100
(1625042533.390674) can0 0CFF72D7#E0012733007D0100
(1625042533.391246) can0 0CFF72D8#E0012733007D0100
(1625042533.391792) can0 0CFF72F3#E0014C34007D0100
(1625042533.409012) can0 0CFF72B1#E0012733007D0100
(1625042533.409554) can0 0CFF72B5#E0012733007D0100
(1625042533.410149) can0 0CFF72BB#E0012733007D0100
(1625042533.410668) can0 0CFF72D7#E0012733007D0100
(1625042533.411238) can0 0CFF72D8#E0012733007D0100
(1625042533.411794) can0 0CFF72F3#E0014C34007D0100
(1625042533.423325) can0 0CFFEEC3#B22CCBB2FCDFF8FF
(1625042533.428998) can0 0CFF72B1#E0012733007D0100
(1625042533.429555) can0 0CFF72B5#E0012733007D0100
(1625042533.430152) can0 0CFF72BB#E0012733007D0100
(1625042533.430670) can0 0CFF72D7#E0012733007D0100
(1625042533.431237) can0 0CFF72D8#E0012733007D0100
(1625042533.431800) can0 0CFF72F3#E0014C34007D0100
(1625042533.449017) can0 0CFF72B1#E0012733007D0100
(1625042533.449551) can0 0CFF72B5#E0012733007D0100
(1625042533.450154) can0 0CFF72BB#E0012733007D0100
(1625042533.450686) can0 0CFF72D7#E0012733007D0100
(1625042533.451230) can0 0CFF72D8#E0012733007D0100
(1625042533.451842) can0 0CFF72F3#E0014C34007D0100
(1625042533.452378) can0 0CFF73B1#EB99EB99D03E0000
