(1626190985.880175) can0 0CFF72B1#E001D832007D0100
(1626190985.880729) can0 0CFF72B5#E0018433007D0100
(1626190985.881281) can0 0CFF72BB#E0014F32007D0100
(1626190985.881849) can0 0CFF72F3#E001E334007D0100
(1626190985.899624) can0 0CFF72B1#E001D832007D0100
(1626190985.900175) can0 0CFF72B5#E0018433007D0100
(1626190985.900738) can0 0CFF72BB#E0014F32007D0100
(1626190985.901293) can0 0CFF72F3#E001E334007D0100
(1626190985.919623) can0 0CFF72B1#E001D832007D0100
(1626190985.920177) can0 0CFF72B5#E0018433007D0100
(1626190985.920746) can0 0CFF72BB#E0014F32007D0100
(1626190985.921295) can0 0CFF72F3#E001E334007D0100
(1626190985.921862) can0 0CFF73B1#BE99BE99803E0000
(1626190985.922440) can0 0CFF73B5#1E9A1E9A204E0000
(1626190985.922967) can0 0CFF73BB#73997399E02E0000
(1626190985.923536) can0 0CFF73F3#E19AE19AC05D0000
(1626190985.924100) can0 0CFF77B1#60EA60EA20000000
(1626190985.924661) can0 0CFF77B5#60EA60EA20000000
(1626190985.925218) can0 0CFF77BB#60EA60EA20000000
(1626190985.925795) can0 0CFF77F3#60EA60EA20000000
(1626190985.928553) can0 18FFD9B1#DC82DC825082F03C
(1626190985.929119) can0 18FFD9B5#DC82DC825082904C
(1626190985.929668) can0 18FFD9BB#3A82DC82DC82502D
(1626190985.930229) can0 18FFD9F3#5082DC82DC82305C
(1626190985.939629) can0 0CFF72B1#E001D832007D0100
(1626190985.940183) can0 0CFF72B5#E0018433007D0100
(1626190985.940749) can0 0CFF72BB#E0014F32007D0100
(1626190985.941298) can0 0CFF72F3#E001E334007D0100
(1626190985.959621) can0 0CFF72B1#E001D832007D0100
(1626190985.960184) can0 0CFF72B5#E0018433007D0100
(1626190985.960731) can0 0CFF72BB#E0014F32007D0100
(1626190985.961293) can0 0CFF72F3#E001E334007D0100
(1626190985.980136) can0 0CFF72B1#E001D832007D0100
(1626190985.980710) can0 0CFF72B5#E0018433007D0100
(1626190985.981274) can0 0CFF72BB#E0014F32007D0100
(1626190985.981833) can0 0CFF72F3#E001E334007D0100
(1626190985.999626) can0 0CFF72B1#E001D832007D0100
(1626190986.000188) can0 0CFF72B5#E0018433007D0100
(1626190986.000731) can0 0CFF72BB#E0014F32007D0100
(1626190986.001299) can0 0CFF72F3#E001E334007D0100
(1626190986.019632) can0 0CFF72B1#E001D832007D0100
(1626190986.020184) can0 0CFF72B5#E0018433007D0100
(1626190986.020734) can0 0CFF72BB#E0014F32007D0100
(1626190986.021302) can0 0CFF72F3#E001E334007D0100
(1626190986.021871) can0 0CFF73B1#BE99BE99803E0000
(1626190986.022418) can0 0CFF73B5#1E9A1E9A204E0000
(1626190986.022968) can0 0CFF73BB#73997399E02E0000
(1626190986.023524) can0 0CFF73F3#E19AE19AC05D0000
(1626190986.024110) can0 0CFF77B1#60EA60EA20000000
(1626190986.024657) can0 0CFF77B5#60EA60EA20000000
(1626190986.025233) can0 0CFF77BB#60EA60EA20000000
(1626190986.025782) can0 0CFF77F3#60EA60EA20000000
(1626190986.028566) can0 18FFD9B1#DC82DC825082F03C
(1626190986.029109) can0 18FFD9B5#DC82DC825082904C
(1626190986.029658) can0 18FFD9BB#3A82DC82DC82502D
(1626190986.030215) can0 18FFD9F3#5082DC82DC82305C
(1626190986.039635) can0 0CFF72B1#E001D832007D0100
(1626190986.040182) can0 0CFF72B5#E0018433007D0100
(1626190986.040749) can0 0CFF72BB#E0014F32007D0100
(1626190986.041305) can0 0CFF72F3#E001E334007D0100
(1626190986.059638) can0 0CFF72B1#E001D832007D0100
(1626190986.060189) can0 0CFF72B5#E0018433007D0100
(1626190986.060739) can0 0CFF72BB#E0014F32007D0100
(1626190986.061308) can0 0CFF72F3#E001E334007D0100
(1626190986.080152) can0 0CFF72B1#E001D832007D0100
(1626190986.080729) can0 0CFF72B5#E0018433007D0100
(1626190986.081263) can0 0CFF72BB#E0014F32007D0100
(1626190986.081827) can0 0CFF72F3#E001E334007D0100
(1626190986.099631) can0 0CFF72B1#E001D832007D0100
(1626190986.100178) can0 0CFF72B5#E0018433007D0100
(1626190986.100743) can0 0CFF72BB#E0014F32007D0100
(1626190986.101303) can0 0CFF72F3#E001E334007D0100
(1626190986.119644) can0 0C00C3B1#0300000000000000
(1626190986.120242) can0 0C00C3B5#0300000000000000
(1626190986.120798) can0 0C00C3F3#3200000000000000
(1626190986.121373) can0 0CFF72B1#E001D832007D0100
(1626190986.121933) can0 0CFF72B5#E0018433007D0100
(1626190986.122507) can0 0CFF72BB#E0014F32007D0100
(1626190986.123046) can0 0CFF72F3#E001E334007D0100
(1626190986.123633) can0 0CFF73B1#BE99BE99803E0000
(1626190986.124170) can0 0CFF73B5#1E9A1E9A204E0000
(1626190986.124722) can0 0CFF73BB#73997399E02E0000
(1626190986.125272) can0 0CFF73F3#E19AE19AC05D0000
(1626190986.125861) can0 0CFF77B1#60EA60EA20000000
(1626190986.126407) can0 0CFF77B5#60EA60EA20000000
(1626190986.126973) can0 0CFF77BB#60EA60EA20000000
(1626190986.127532) can0 0CFF77F3#60EA60EA20000000
(1626190986.128127) can0 0CFF78B1#2C812C812C810300
(1626190986.128652) can0 0CFF78B5#2C812C812C810300
(1626190986.129228) can0 0CFF78BB#2C812C812C810300
(1626190986.129758) can0 0CFF78F3#2C812C812C813200
(1626190986.134200) can0 18FFD9B1#DC82DC825082F03C
(1626190986.134802) can0 18FFD9B5#DC82DC825082904C
(1626190986.135288) can0 18FFD9BB#3A82DC82DC82502D
(1626190986.135847) can0 18FFD9F3#5082DC82DC82305C
(1626190986.136403) can0 18FFDFB1#5091409C409C2C81
(1626190986.136954) can0 18FFDFB5#5091409C409C2C81
(1626190986.137509) can0 18FFDFBB#5091409C409C2C81
(1626190986.138058) can0 18FFDFF3#E092409C409C2C81
(1626190986.138633) can0 18FFE0B1#0000000000000000
(1626190986.139231) can0 18FFE0B5#0000000000000000
(1626190986.139828) can0 18FFE0BB#0000000000000000
(1626190986.140423) can0 18FFE0F3#0000000000000000
(1626190986.141009) can0 18FFE1B1#0000000000000000
(1626190986.141602) can0 18FFE1B5#0000000000000000
(1626190986.142190) can0 18FFE1BB#0000000000000000
(1626190986.142779) can0 18FFE1F3#0000000000000000
(1626190986.143349) can0 0CFF72B1#E001D832007D0100
(1626190986.143926) can0 0CFF72B5#E0018433007D0100
(1626190986.144475) can0 0CFF72BB#E0014F32007D0100
(1626190986.145029) can0 0CFF72F3#E001E334007D0100
(1626190986.159643) can0 0CFF72B1#E001D832007D0100
(1626190986.160190) can0 0CFF72B5#E0018433007D0100
(1626190986.160760) can0 0CFF72BB#E0014F32007D0100
(1626190986.161311) can0 0CFF72F3#E001E334007D0100
(1626190986.180149) can0 0CFF72B1#E001D832007D0100
(1626190986.180710) can0 0CFF72B5#E0018433007D0100
(1626190986.181270) can0 0CFF72BB#E0014F32007D0100
(1626190986.181834) can0 0CFF72F3#E001E334007D0100
(1626190986.199641) can0 0CFF72B1#E001D832007D0100
(1626190986.200187) can0 0CFF72B5#E0018433007D0100
(1626190986.200740) can0 0CFF72BB#E0014F32007D0100
(1626190986.201306) can0 0CFF72F3#E001E334007D0100
(1626190986.219641) can0 0CFF72B1#E001D832007D0100
(1626190986.220188) can0 0CFF72B5#E0018433007D0100
(1626190986.220754) can0 0CFF72BB#E0014F32007D0100
(1626190986.221307) can0 0CFF72F3#E001E334007D0100
(1626190986.221866) can0 0CFF73B1#BE99BE99803E0000
(1626190986.222432) can0 0CFF73B5#1E9A1E9A204E0000
(1626190986.223005) can0 0CFF73BB#73997399E02E0000
(1626190986.223537) can0 0CFF73F3#E19AE19AC05D0000
(1626190986.224132) can0 0CFF77B1#60EA60EA20000000
(1626190986.224663) can0 0CFF77B5#60EA60EA20000000
(1626190986.225235) can0 0CFF77BB#60EA60EA20000000
(1626190986.225798) can0 0CFF77F3#60EA60EA20000000
(1626190986.228549) can0 18FFD9B1#DC82DC825082F03C
(1626190986.229138) can0 18FFD9B5#DC82DC825082904C
(1626190986.229655) can0 18FFD9BB#3A82DC82DC82502D
(1626190986.230220) can0 18FFD9F3#5082DC82DC82305C
(1626190986.239629) can0 0CFF72B1#E001D832007D0100
(1626190986.240181) can0 0CFF72B5#E0018433007D0100
(1626190986.240746) can0 0CFF72BB#E0014F32007D0100
(1626190986.241300) can0 0CFF72F3#E001E334007D0100
(1626190986.259622) can0 0CFF72B1#E001D832007D0100
(1626190986.260188) can0 0CFF72B5#E0018433007D0100
(1626190986.260752) can0 0CFF72BB#E0014F32007D0100
(1626190986.261307) can0 0CFF72F3#E001E334007D0100
(1626190986.280148) can0 0CFF72B1#E001D832007D0100
(1626190986.280710) can0 0CFF72B5#E0018433007D0100
(1626190986.281268) can0 0CFF72BB#E0014F32007D0100
(1626190986.281825) can0 0CFF72F3#E001E334007D0100
(1626190986.299636) can0 0CFF72B1#E001D832007D0100
(1626190986.300187) can0 0CFF72B5#E0018433007D0100
(1626190986.300746) can0 0CFF72BB#E0014F32007D0100
(1626190986.301312) can0 0CFF72F3#E001E334007D0100
(1626190986.319641) can0 0CFF72B1#E001D832007D0100
(1626190986.320209) can0 0CFF72B5#E0018433007D0100
(1626190986.320805) can0 0CFF72BB#E0014F32007D0100
(1626190986.321314) can0 0CFF72F3#E001E334007D0100
(1626190986.321874) can0 0CFF73B1#BE99BE99803E0000
(1626190986.322430) can0 0CFF73B5#1E9A1E9A204E0000
(1626190986.322981) can0 0CFF73BB#73997399E02E0000
(1626190986.323536) can0 0CFF73F3#E19AE19AC05D0000
(1626190986.324166) can0 0CFF77B1#60EA60EA20000000
(1626190986.324682) can0 0CFF77B5#60EA60EA20000000
(1626190986.325228) can0 0CFF77BB#60EA60EA20000000
(1626190986.325798) can0 0CFF77F3#60EA60EA20000000
(1626190986.328569) can0 18FFD9B1#DC82DC825082F03C
(1626190986.329167) can0 18FFD9B5#DC82DC825082904C
(1626190986.329662) can0 18FFD9BB#3A82DC82DC82502D
(1626190986.330220) can0 18FFD9F3#5082DC82DC82305C
(1626190986.339639) can0 0CFF72B1#E001D832007D0100
(1626190986.340198) can0 0CFF72B5#E0018433007D0100
(1626190986.340763) can0 0CFF72BB#E0014F32007D0100
(1626190986.341326) can0 0CFF72F3#E001E334007D0100
(1626190986.359637) can0 0CFF72B1#E001D832007D0100
(1626190986.360191) can0 0CFF72B5#E0018433007D0100
(1626190986.360756) can0 0CFF72BB#E0014F32007D0100
(1626190986.361299) can0 0CFF72F3#E001E334007D0100
(1626190986.380160) can0 0CFF72B1#E001D832007D0100
(1626190986.380701) can0 0CFF72B5#E0018433007D0100
(1626190986.381267) can0 0CFF72BB#E0014F32007D0100
(1626190986.381831) can0 0CFF72F3#E001E334007D0100
(1626190986.399646) can0 0CFF72B1#E001D832007D0100
(1626190986.400196) can0 0CFF72B5#E0018433007D0100
(1626190986.400746) can0 0CFF72BB#E0014F32007D0100
(1626190986.401312) can0 0CFF72F3#E001E334007D0100
(1626190986.419644) can0 0CFF72B1#E001D832007D0100
(1626190986.420196) can0 0CFF72B5#E0018433007D0100
(1626190986.420760) can0 0CFF72BB#E0014F32007D0100
(1626190986.421313) can0 0CFF72F3#E001E334007D0100
(1626190986.421884) can0 0CFF73B1#BE99BE99803E0000
(1626190986.422428) can0 0CFF73B5#1E9A1E9A204E0000
(1626190986.422979) can0 0CFF73BB#73997399E02E0000
(1626190986.423575) can0 0CFF73F3#E19AE19AC05D0000
(1626190986.424098) can0 0CFF77B1#60EA60EA20000000
(1626190986.424676) can0 0CFF77B5#60EA60EA20000000
(1626190986.425238) can0 0CFF77BB#60EA60EA20000000
(1626190986.425796) can0 0CFF77F3#60EA60EA20000000
(1626190986.428564) can0 18FFD9B1#DC82DC825082F03C
(1626190986.429170) can0 18FFD9B5#DC82DC825082904C
(1626190986.429666) can0 18FFD9BB#3A82DC82DC82502D
(1626190986.430221) can0 18FFD9F3#5082DC82DC82305C
(1626190986.439641) can0 0CFF72B1#E001D832007D0100
(1626190986.440200) can0 0CFF72B5#E0018433007D0100
(1626190986.440761) can0 0CFF72BB#E0014F32007D0100
(1626190986.441317) can0 0CFF72F3#E001E334007D0100
(1626190986.459651) can0 0CFF72B1#E001D832007D0100
(1626190986.460193) can0 0CFF72B5#E0018433007D0100
(1626190986.460746) can0 0CFF72BB#E0014F32007D0100
(1626190986.461312) can0 0CFF72F3#E001E334007D0100
(1626190986.480169) can0 0CFF72B1#E001D832007D0100
(1626190986.480697) can0 0CFF72B5#E0018433007D0100
(1626190986.481252) can0 0CFF72BB#E0014F32007D0100
(1626190986.481822) can0 0CFF72F3#E001E334007D0100
(1626190986.499659) can0 0CFF72B1#E001D832007D0100
(1626190986.500178) can0 0CFF72B5#E0018433007D0100
(1626190986.500748) can0 0CFF72BB#E0014F32007D0100
(1626190986.501317) can0 0CFF72F3#E001E334007D0100
(1626190986.519637) can0 0CFF72B1#E001D832007D0100
(1626190986.520201) can0 0CFF72B5#E0018433007D0100
(1626190986.520755) can0 0CFF72BB#E0014F32007D0100
(1626190986.521347) can0 0CFF72F3#E001E334007D0100
(1626190986.521869) can0 0CFF73B1#BE99BE99803E0000
(1626190986.522432) can0 0CFF73B5#1E9A1E9A204E0000
(1626190986.522982) can0 0CFF73BB#73997399E02E0000
(1626190986.523547) can0 0CFF73F3#E19AE19AC05D0000
(1626190986.524097) can0 0CFF77B1#60EA60EA20000000
(1626190986.524683) can0 0CFF77B5#60EA60EA20000000
(1626190986.525239) can0 0CFF77BB#60EA60EA20000000
(1626190986.525807) can0 0CFF77F3#60EA60EA20000000
(1626190986.528559) can0 18FFD9B1#DC82DC825082F03C
(1626190986.529100) can0 18FFD9B5#DC82DC825082904C
(1626190986.529660) can0 18FFD9BB#3A82DC82DC82502D
(1626190986.530228) can0 18FFD9F3#5082DC82DC82305C
(1626190986.539628) can0 0CFF72B1#E001D832007D0100
(1626190986.540191) can0 0CFF72B5#E0018433007D0100
(1626190986.540756) can0 0CFF72BB#E0014F32007D0100
(1626190986.541312) can0 0CFF72F3#E001E334007D0100
(1626190986.559647) can0 0CFF72B1#E001D832007D0100
(1626190986.560188) can0 0CFF72B5#E0018433007D0100
(1626190986.560752) can0 0CFF72BB#E0014F32007D0100
(1626190986.561310) can0 0CFF72F3#E001E334007D0100
(1626190986.580205) can0 0CFF72B1#E001D832007D0100
(1626190986.580694) can0 0CFF72B5#E0018433007D0100
(1626190986.581268) can0 0CFF72BB#E0014F32007D0100
(1626190986.581825) can0 0CFF72F3#E001E334007D0100
(1626190986.599781) can0 0CFF72B1#E001D832007D0100
(1626190986.600195) can0 0CFF72B5#E0018433007D0100
(1626190986.600744) can0 0CFF72BB#E0014F32007D0100
(1626190986.601310) can0 0CFF72F3#E001E334007D0100
(1626190986.619649) can0 0CFF72B1#E001D832007D0100
(1626190986.620203) can0 0CFF72B5#E0018433007D0100
(1626190986.620749) can0 0CFF72BB#E0014F32007D0100
(1626190986.621312) can0 0CFF72F3#E001E334007D0100
(1626190986.621875) can0 0CFF73B1#BE99BE99803E0000
(1626190986.622437) can0 0CFF73B5#1E9A1E9A204E0000
(1626190986.622986) can0 0CFF73BB#73997399E02E0000
(1626190986.623539) can0 0CFF73F3#E19AE19AC05D0000
(1626190986.624132) can0 0CFF77B1#60EA60EA20000000
(1626190986.624671) can0 0CFF77B5#60EA60EA20000000
(1626190986.625238) can0 0CFF77BB#60EA60EA20000000
(1626190986.625806) can0 0CFF77F3#60EA60EA20000000
(1626190986.628574) can0 18FFD9B1#DC82DC825082F03C
(1626190986.629151) can0 18FFD9B5#DC82DC825082904C
(1626190986.629666) can0 18FFD9BB#3A82DC82DC82502D
(1626190986.630225) can0 18FFD9F3#5082DC82DC82305C
(1626190986.639628) can0 0CFF72B1#E001D832007D0100
(1626190986.640191) can0 0CFF72B5#E0018433007D0100
(1626190986.640759) can0 0CFF72BB#E0014F32007D0100
(1626190986.641318) can0 0CFF72F3#E001E334007D0100
(1626190986.659625) can0 0CFF72B1#E001D832007D0100
(1626190986.660194) can0 0CFF72B5#E0018433007D0100
(1626190986.660753) can0 0CFF72BB#E0014F32007D0100
(1626190986.661318) can0 0CFF72F3#E001E334007D0100
(1626190986.680130) can0 0CFF72B1#E001D832007D0100
(1626190986.680705) can0 0CFF72B5#E0018433007D0100
(1626190986.681252) can0 0CFF72BB#E0014F32007D0100
(1626190986.681820) can0 0CFF72F3#E001E334007D0100
(1626190986.699642) can0 0CFF72B1#E001D832007D0100
(1626190986.700201) can0 0CFF72B5#E0018433007D0100
(1626190986.700748) can0 0CFF72BB#E0014F32007D0100
(1626190986.701324) can0 0CFF72F3#E001E334007D0100
(1626190986.719652) can0 0CFF72B1#E001D832007D0100
(1626190986.720224) can0 0CFF72B5#E0018433007D0100
(1626190986.720755) can0 0CFF72BB#E0014F32007D0100
(1626190986.721327) can0 0CFF72F3#E001E334007D0100
(1626190986.721875) can0 0CFF73B1#BE99BE99803E0000
(1626190986.722435) can0 0CFF73B5#1E9A1E9A204E0000
(1626190986.722981) can0 0CFF73BB#73997399E02E0000
(1626190986.723549) can0 0CFF73F3#E19AE19AC05D0000
(1626190986.724106) can0 0CFF77B1#60EA60EA20000000
(1626190986.724675) can0 0CFF77B5#60EA60EA20000000
(1626190986.725237) can0 0CFF77BB#60EA60EA20000000
(1626190986.725800) can0 0CFF77F3#60EA60EA20000000
(1626190986.728576) can0 18FFD9B1#DC82DC825082F03C
(1626190986.729116) can0 18FFD9B5#DC82DC825082904C
(1626190986.729678) can0 18FFD9BB#3A82DC82DC82502D
(1626190986.730220) can0 18FFD9F3#5082DC82DC82305C
(1626190986.739649) can0 0CFF72B1#E001D832007D0100
(1626190986.740205) can0 0CFF72B5#E0018433007D0100
(1626190986.740753) can0 0CFF72BB#E0014F32007D0100
(1626190986.741329) can0 0CFF72F3#E001E334007D0100
(1626190986.759635) can0 0CFF72B1#E001D832007D0100
(1626190986.760207) can0 0CFF72B5#E0018433007D0100
(1626190986.760745) can0 0CFF72BB#E0014F32007D0100
(1626190986.761312) can0 0CFF72F3#E001E334007D0100
(1626190986.780134) can0 0CFF72B1#E001D832007D0100
(1626190986.780767) can0 0CFF72B5#E0018433007D0100
(1626190986.781260) can0 0CFF72BB#E0014F32007D0100
(1626190986.781817) can0 0CFF72F3#E001E334007D0100
(1626190986.799632) can0 0CFF72B1#E001D832007D0100
(1626190986.800212) can0 0CFF72B5#E0018433007D0100
(1626190986.800744) can0 0CFF72BB#E0014F32007D0100
(1626190986.801317) can0 0CFF72F3#E001E334007D0100
(1626190986.819640) can0 0CFF72B1#E001D832007D0100
(1626190986.820214) can0 0CFF72B5#E0018433007D0100
(1626190986.820743) can0 0CFF72BB#E0014F32007D0100
(1626190986.821320) can0 0CFF72F3#E001E334007D0100
(1626190986.821882) can0 0CFF73B1#BE99BE99803E0000
(1626190986.822443) can0 0CFF73B5#1E9A1E9A204E0000
(1626190986.822985) can0 0CFF73BB#73997399E02E0000
(1626190986.823542) can0 0CFF73F3#E19AE19AC05D0000
(1626190986.824115) can0 0CFF77B1#60EA60EA20000000
(1626190986.824701) can0 0CFF77B5#60EA60EA20000000
(1626190986.825248) can0 0CFF77BB#60EA60EA20000000
(1626190986.825820) can0 0CFF77F3#60EA60EA20000000
(1626190986.828594) can0 18FFD9B1#DC82DC825082F03C
(1626190986.829130) can0 18FFD9B5#DC82DC825082904C
(1626190986.829739) can0 18FFD9BB#3A82DC82DC82502D
(1626190986.830230) can0 18FFD9F3#5082DC82DC82305C
(1626190986.839632) can0 0CFF72B1#E001D832007D0100
(1626190986.840216) can0 0CFF72B5#E0018433007D0100
(1626190986.840746) can0 0CFF72BB#E0014F32007D0100
(1626190986.841322) can0 0CFF72F3#E001E334007D0100
(1626190986.859647) can0 0CFF72B1#E001D832007D0100
(1626190986.860220) can0 0CFF72B5#E0018433007D0100
(1626190986.860740) can0 0CFF72BB#E0014F32007D0100
(1626190986.861318) can0 0CFF72F3#E001E334007D0100
(1626190986.880146) can0 0CFF72B1#E001D832007D0100
(1626190986.880705) can0 0CFF72B5#E0018433007D0100
(1626190986.881269) can0 0CFF72BB#E0014F32007D0100
(1626190986.881828) can0 0CFF72F3#E001E334007D0100
(1626190986.899628) can0 0CFF72B1#E001D832007D0100
(1626190986.900224) can0 0CFF72B5#E0018433007D0100
(1626190986.900742) can0 0CFF72BB#E0014F32007D0100
(1626190986.901320) can0 0CFF72F3#E001E334007D0100
(1626190986.919647) can0 0CFF72B1#E001D832007D0100
(1626190986.920224) can0 0CFF72B5#E0018433007D0100
(1626190986.920745) can0 0CFF72BB#E0014F32007D0100
(1626190986.921308) can0 0CFF72F3#E001E334007D0100
(1626190986.921880) can0 0CFF73B1#BE99BE99803E0000
(1626190986.922447) can0 0CFF73B5#1E9A1E9A204E0000
(1626190986.922984) can0 0CFF73BB#73997399E02E0000
(1626190986.923534) can0 0CFF73F3#E19AE19AC05D0000
(1626190986.924099) can0 0CFF77B1#60EA60EA20000000
(1626190986.924667) can0 0CFF77B5#60EA60EA20000000
(1626190986.925230) can0 0CFF77BB#60EA60EA20000000
(1626190986.925802) can0 0CFF77F3#60EA60EA20000000
(1626190986.928574) can0 18FFD9B1#DC82DC825082F03C
(1626190986.929127) can0 18FFD9B5#DC82DC825082904C
(1626190986.929669) can0 18FFD9BB#3A82DC82DC82502D
(1626190986.930224) can0 18FFD9F3#5082DC82DC82305C
(1626190986.939640) can0 0CFF72B1#E001D832007D0100
(1626190986.940228) can0 0CFF72B5#E0018433007D0100
(1626190986.940746) can0 0CFF72BB#E0014F32007D0100
(1626190986.941312) can0 0CFF72F3#E001E334007D0100
(1626190986.959637) can0 0CFF72B1#E001D832007D0100
(1626190986.960233) can0 0CFF72B5#E0018433007D0100
(1626190986.960742) can0 0CFF72BB#E0014F32007D0100
(1626190986.961304) can0 0CFF72F3#E001E334007D0100
(1626190986.980146) can0 0CFF72B1#E001D832007D0100
(1626190986.980702) can0 0CFF72B5#E0018433007D0100
(1626190986.981272) can0 0CFF72BB#E0014F32007D0100
(1626190986.981821) can0 0CFF72F3#E001E334007D0100
(1626190986.999638) can0 0CFF72B1#E001D832007D0100
(1626190987.000240) can0 0CFF72B5#E0018433007D0100
(1626190987.000756) can0 0CFF72BB#E0014F32007D0100
(1626190987.001341) can0 0CFF72F3#E001E334007D0100
(1626190987.019641) can0 0CFF72B1#E001D832007D0100
(1626190987.020241) can0 0CFF72B5#E0018433007D0100
(1626190987.020749) can0 0CFF72BB#E0014F32007D0100
(1626190987.021317) can0 0CFF72F3#E001E334007D0100
(1626190987.021873) can0 0CFF73B1#BE99BE99803E0000
(1626190987.022435) can0 0CFF73B5#1E9A1E9A204E0000
(1626190987.022991) can0 0CFF73BB#73997399E02E0000
(1626190987.023538) can0 0CFF73F3#E19AE19AC05D0000
(1626190987.024101) can0 0CFF77B1#60EA60EA20000000
(1626190987.024674) can0 0CFF77B5#60EA60EA20000000
(1626190987.025241) can0 0CFF77BB#60EA60EA20000000
(1626190987.025797) can0 0CFF77F3#60EA60EA20000000
(1626190987.028575) can0 18FFD9B1#DC82DC825082F03C
(1626190987.029128) can0 18FFD9B5#DC82DC825082904C
(1626190987.029681) can0 18FFD9BB#3A82DC82DC82502D
(1626190987.030290) can0 18FFD9F3#5082DC82DC82305C
(1626190987.039645) can0 0CFF72B1#E001D832007D0100
(1626190987.040243) can0 0CFF72B5#E0018433007D0100
(1626190987.040751) can0 0CFF72BB#E0014F32007D0100
(1626190987.041317) can0 0CFF72F3#E001E334007D0100
(1626190987.059745) can0 0CFF72B1#E001D832007D0100
(1626190987.060247) can0 0CFF72B5#E0018433007D0100
(1626190987.060757) can0 0CFF72BB#E0014F32007D0100
(1626190987.061335) can0 0CFF72F3#E001E334007D0100
(1626190987.080143) can0 0CFF72B1#E001D832007D0100
(1626190987.080688) can0 0CFF72B5#E0018433007D0100
(1626190987.081261) can0 0CFF72BB#E0014F32007D0100
(1626190987.081829) can0 0CFF72F3#E001E334007D0100
(1626190987.099639) can0 0CFF72B1#E001D832007D0100
(1626190987.100243) can0 0CFF72B5#E0018433007D0100
(1626190987.100743) can0 0CFF72BB#E0014F32007D0100
(1626190987.101298) can0 0CFF72F3#E001E334007D0100
(1626190987.119653) can0 0C00C3B1#0300000000000000
(1626190987.120246) can0 0C00C3B5#0300000000000000
(1626190987.120795) can0 0C00C3F3#3200000000000000
(1626190987.121372) can0 0CFF72B1#E001D832007D0100
(1626190987.121929) can0 0CFF72B5#E0018433007D0100
(1626190987.122480) can0 0CFF72BB#E0014F32007D0100
(1626190987.123044) can0 0CFF72F3#E001E334007D0100
(1626190987.123620) can0 0CFF73B1#BE99BE99803E0000
(1626190987.124180) can0 0CFF73B5#1E9A1E9A204E0000
(1626190987.124719) can0 0CFF73BB#73997399E02E0000
(1626190987.125282) can0 0CFF73F3#E19AE19AC05D0000
(1626190987.125845) can0 0CFF77B1#60EA60EA20000000
(1626190987.126411) can0 0CFF77B5#60EA60EA20000000
(1626190987.126980) can0 0CFF77BB#60EA60EA20000000
(1626190987.127526) can0 0CFF77F3#60EA60EA20000000
(1626190987.128129) can0 0CFF78B1#2C812C812C810300
(1626190987.128661) can0 0CFF78B5#2C812C812C810300
(1626190987.129246) can0 0CFF78BB#2C812C812C810300
(1626190987.129766) can0 0CFF78F3#2C812C812C813200
(1626190987.134246) can0 18FFD9B1#DC82DC825082F03C
(1626190987.134747) can0 18FFD9B5#DC82DC825082904C
(1626190987.135303) can0 18FFD9BB#3A82DC82DC82502D
(1626190987.135852) can0 18FFD9F3#5082DC82DC82305C
(1626190987.136407) can0 18FFDFB1#5091409C409C2C81
(1626190987.136951) can0 18FFDFB5#5091409C409C2C81
(1626190987.137508) can0 18FFDFBB#5091409C409C2C81
(1626190987.138056) can0 18FFDFF3#E092409C409C2C81
(1626190987.138646) can0 18FFE0B1#0000000000000000
(1626190987.139252) can0 18FFE0B5#0000000000000000
(1626190987.139828) can0 18FFE0BB#0000000000000000
(1626190987.140423) can0 18FFE0F3#0000000000000000
(1626190987.141018) can0 18FFE1B1#0000000000000000
(1626190987.141596) can0 18FFE1B5#0000000000000000
(1626190987.142182) can0 18FFE1BB#0000000000000000
(1626190987.142809) can0 18FFE1F3#0000000000000000
(1626190987.143354) can0 0CFF72B1#E001D832007D0100
(1626190987.143912) can0 0CFF72B5#E0018433007D0100
(1626190987.144472) can0 0CFF72BB#E0014F32007D0100
(1626190987.145024) can0 0CFF72F3#E001E334007D0100
(1626190987.159639) can0 0CFF72B1#E001D832007D0100
(1626190987.160186) can0 0CFF72B5#E0018433007D0100
(1626190987.160735) can0 0CFF72BB#E0014F32007D0100
(1626190987.161306) can0 0CFF72F3#E001E334007D0100
(1626190987.180134) can0 0CFF72B1#E001D832007D0100
(1626190987.180688) can0 0CFF72B5#E0018433007D0100
(1626190987.181253) can0 0CFF72BB#E0014F32007D0100
(1626190987.181802) can0 0CFF72F3#E001E334007D0100
(1626190987.199624) can0 0CFF72B1#E001D832007D0100
(1626190987.200181) can0 0CFF72B5#E0018433007D0100
(1626190987.200756) can0 0CFF72BB#E0014F32007D0100
(1626190987.201293) can0 0CFF72F3#E001E334007D0100
(1626190987.219625) can0 0CFF72B1#E001D832007D0100
(1626190987.220183) can0 0CFF72B5#E0018433007D0100
(1626190987.220742) can0 0CFF72BB#E0014F32007D0100
(1626190987.221304) can0 0CFF72F3#E001E334007D0100
(1626190987.221868) can0 0CFF73B1#BE99BE99803E0000
(1626190987.222423) can0 0CFF73B5#1E9A1E9A204E0000
(1626190987.222982) can0 0CFF73BB#73997399E02E0000
(1626190987.223528) can0 0CFF73F3#E19AE19AC05D0000
(1626190987.224107) can0 0CFF77B1#60EA60EA20000000
(1626190987.224654) can0 0CFF77B5#60EA60EA20000000
(1626190987.225261) can0 0CFF77BB#60EA60EA20000000
(1626190987.225788) can0 0CFF77F3#60EA60EA20000000
(1626190987.228559) can0 18FFD9B1#DC82DC825082F03C
(1626190987.229111) can0 18FFD9B5#DC82DC825082904C
(1626190987.229665) can0 18FFD9BB#3A82DC82DC82502D
(1626190987.230259) can0 18FFD9F3#5082DC82DC82305C
(1626190987.239635) can0 0CFF72B1#E001D832007D0100
(1626190987.240185) can0 0CFF72B5#E0018433007D0100
(1626190987.240790) can0 0CFF72BB#E0014F32007D0100
(1626190987.241317) can0 0CFF72F3#E001E334007D0100
(1626190987.259629) can0 0CFF72B1#E001D832007D0100
(1626190987.260191) can0 0CFF72B5#E0018433007D0100
(1626190987.260738) can0 0CFF72BB#E0014F32007D0100
(1626190987.261301) can0 0CFF72F3#E001E334007D0100
(1626190987.280125) can0 0CFF72B1#E001D832007D0100
(1626190987.280680) can0 0CFF72B5#E0018433007D0100
(1626190987.281266) can0 0CFF72BB#E0014F32007D0100
(1626190987.281816) can0 0CFF72F3#E001E334007D0100
