(1636026245.726466) can0 0CFF72B1#E0015930007D0100
(1636026245.727022) can0 0CFF72B5#E0015930007D0100
(1636026245.727589) can0 0CFF72BB#E0015930007D0100
(1636026245.728147) can0 0CFF72F3#E0015930007D0100
(1636026245.746461) can0 0CFF72B1#E0015930007D0100
(1636026245.747010) can0 0CFF72B5#E0015930007D0100
(1636026245.747576) can0 0CFF72BB#E0015930007D0100
(1636026245.748145) can0 0CFF72F3#E0015930007D0100
(1636026245.766460) can0 0CFF72B1#E0015930007D0100
(1636026245.767014) can0 0CFF72B5#E0015930007D0100
(1636026245.767578) can0 0CFF72BB#E0015930007D0100
(1636026245.768137) can0 0CFF72F3#E0015930007D0100
(1636026245.786458) can0 0CFF72B1#E0015930007D0100
(1636026245.787015) can0 0CFF72B5#E0015930007D0100
(1636026245.787587) can0 0CFF72BB#E0015930007D0100
(1636026245.788128) can0 0CFF72F3#E0015930007D0100
(1636026245.788705) can0 0CFF73B1#5B985B98401F0000
(1636026245.789245) can0 0CFF73B5#5B985B98401F0000
(1636026245.789805) can0 0CFF73BB#5B985B98401F0000
(1636026245.790341) can0 0CFF73F3#5B985B98401F0000
(1636026245.790910) can0 0CFF77B1#60EA60EA20000000
(1636026245.791485) can0 0CFF77B5#60EA60EA20000000
(1636026245.792055) can0 0CFF77BB#60EA60EA20000000
(1636026245.792610) can0 0CFF77F3#60EA60EA20000000
(1636026245.795361) can0 18FFD9B1#B888B8885F87B01D
(1636026245.795900) can0 18FFD9B5#B888B8885F87B01D
(1636026245.796441) can0 18FFD9BB#5F87B888B888B01D
(1636026245.796987) can0 18FFD9F3#5F87B888B888B01D
(1636026245.806458) can0 0CFF72B1#E0015930007D0100
(1636026245.807017) can0 0CFF72B5#E0015930007D0100
(1636026245.807583) can0 0CFF72BB#E0015930007D0100
(1636026245.808143) can0 0CFF72F3#E0015930007D0100
(1636026245.826460) can0 0CFF72B1#E0015930007D0100
(1636026245.827020) can0 0CFF72B5#E0015930007D0100
(1636026245.827586) can0 0CFF72BB#E0015930007D0100
(1636026245.828145) can0 0CFF72F3#E0015930007D0100
(1636026245.846466) can0 0CFF72B1#E0015930007D0100
(1636026245.847049) can0 0CFF72B5#E0015930007D0100
(1636026245.847573) can0 0CFF72BB#E0015930007D0100
(1636026245.848138) can0 0CFF72F3#E0015930007D0100
(1636026245.866471) can0 0CFF72B1#E0015930007D0100
(1636026245.867091) can0 0CFF72B5#E0015930007D0100
(1636026245.867575) can0 0CFF72BB#E0015930007D0100
(1636026245.868137) can0 0CFF72F3#E0015930007D0100
(1636026245.886478) can0 0CFF72B1#E0015930007D0100
(1636026245.887019) can0 0CFF72B5#E0015930007D0100
(1636026245.887575) can0 0CFF72BB#E0015930007D0100
(1636026245.888151) can0 0CFF72F3#E0015930007D0100
(1636026245.888725) can0 0CFF73B1#5B985B98401F0000
(1636026245.889247) can0 0CFF73B5#5B985B98401F0000
(1636026245.889792) can0 0CFF73BB#5B985B98401F0000
(1636026245.890361) can0 0CFF73F3#5B985B98401F0000
(1636026245.890930) can0 0CFF77B1#60EA60EA20000000
(1636026245.891486) can0 0CFF77B5#60EA60EA20000000
(1636026245.892055) can0 0CFF77BB#60EA60EA20000000
(1636026245.892618) can0 0CFF77F3#60EA60EA20000000
(1636026245.895360) can0 18FFD9B1#B888B8885F87B01D
(1636026245.895900) can0 18FFD9B5#B888B8885F87B01D
(1636026245.896454) can0 18FFD9BB#5F87B888B888B01D
(1636026245.896996) can0 18FFD9F3#5F87B888B888B01D
(1636026245.906486) can0 0CFF72B1#E0015930007D0100
(1636026245.907018) can0 0CFF72B5#E0015930007D0100
(1636026245.907586) can0 0CFF72BB#E0015930007D0100
(1636026245.908152) can0 0CFF72F3#E0015930007D0100
(1636026245.926468) can0 0CFF72B1#E0015930007D0100
(1636026245.927030) can0 0CFF72B5#E0015930007D0100
(1636026245.927580) can0 0CFF72BB#E0015930007D0100
(1636026245.928155) can0 0CFF72F3#E0015930007D0100
(1636026245.946471) can0 0CFF72B1#E0015930007D0100
(1636026245.947023) can0 0CFF72B5#E0015930007D0100
(1636026245.947590) can0 0CFF72BB#E0015930007D0100
(1636026245.948157) can0 0CFF72F3#E0015930007D0100
(1636026245.966465) can0 0CFF72B1#E0015930007D0100
(1636026245.967027) can0 0CFF72B5#E0015930007D0100
(1636026245.967587) can0 0CFF72BB#E0015930007D0100
(1636026245.968142) can0 0CFF72F3#E0015930007D0100
(1636026245.986469) can0 0CFF72B1#E0015930007D0100
(1636026245.987021) can0 0CFF72B5#E0015930007D0100
(1636026245.987587) can0 0CFF72BB#E0015930007D0100
(1636026245.988152) can0 0CFF72F3#E0015930007D0100
(1636026245.988780) can0 0CFF73B1#5B985B98401F0000
(1636026245.989238) can0 0CFF73B5#5B985B98401F0000
(1636026245.989804) can0 0CFF73BB#5B985B98401F0000
(1636026245.990362) can0 0CFF73F3#5B985B98401F0000
(1636026245.990921) can0 0CFF77B1#60EA60EA20000000
(1636026245.991487) can0 0CFF77B5#60EA60EA20000000
(1636026245.992056) can0 0CFF77BB#60EA60EA20000000
(1636026245.992613) can0 0CFF77F3#60EA60EA20000000
(1636026245.995370) can0 18FFD9B1#B888B8885F87B01D
(1636026245.995914) can0 18FFD9B5#B888B8885F87B01D
(1636026245.996467) can0 18FFD9BB#5F87B888B888B01D
(1636026245.996998) can0 18FFD9F3#5F87B888B888B01D
(1636026246.006467) can0 0CFF72B1#E0015930007D0100
(1636026246.007028) can0 0CFF72B5#E0015930007D0100
(1636026246.007587) can0 0CFF72BB#E0015930007D0100
(1636026246.008142) can0 0CFF72F3#E0015930007D0100
(1636026246.026464) can0 0CFF72B1#E0015930007D0100
(1636026246.027020) can0 0CFF72B5#E0015930007D0100
(1636026246.027595) can0 0CFF72BB#E0015930007D0100
(1636026246.028157) can0 0CFF72F3#E0015930007D0100
(1636026246.046462) can0 0CFF72B1#E0015930007D0100
(1636026246.047024) can0 0CFF72B5#E0015930007D0100
(1636026246.047592) can0 0CFF72BB#E0015930007D0100
(1636026246.048138) can0 0CFF72F3#E0015930007D0100
(1636026246.066478) can0 0CFF72B1#E0015930007D0100
(1636026246.067026) can0 0CFF72B5#E0015930007D0100
(1636026246.067577) can0 0CFF72BB#E0015930007D0100
(1636026246.068141) can0 0CFF72F3#E0015930007D0100
(1636026246.086457) can0 0CFF72B1#E0015930007D0100
(1636026246.087029) can0 0CFF72B5#E0015930007D0100
(1636026246.087568) can0 0CFF72BB#E0015930007D0100
(1636026246.088147) can0 0CFF72F3#E0015930007D0100
(1636026246.088686) can0 0CFF73B1#5B985B98401F0000
(1636026246.089252) can0 0CFF73B5#5B985B98401F0000
(1636026246.089797) can0 0CFF73BB#5B985B98401F0000
(1636026246.090360) can0 0CFF73F3#5B985B98401F0000
(1636026246.090928) can0 0CFF77B1#60EA60EA20000000
(1636026246.091485) can0 0CFF77B5#60EA60EA20000000
(1636026246.092047) can0 0CFF77BB#60EA60EA20000000
(1636026246.092610) can0 0CFF77F3#60EA60EA20000000
(1636026246.095377) can0 18FFD9B1#B888B8885F87B01D
(1636026246.095907) can0 18FFD9B5#B888B8885F87B01D
(1636026246.096460) can0 18FFD9BB#5F87B888B888B01D
(1636026246.097003) can0 18FFD9F3#5F87B888B888B01D
(1636026246.106469) can0 0CFF72B1#E0015930007D0100
(1636026246.107014) can0 0CFF72B5#E0015930007D0100
(1636026246.107582) can0 0CFF72BB#E0015930007D0100
(1636026246.108152) can0 0CFF72F3#E0015930007D0100
(1636026246.126470) can0 0CFF72B1#E0015930007D0100
(1636026246.127026) can0 0CFF72B5#E0015930007D0100
(1636026246.127608) can0 0CFF72BB#E0015930007D0100
(1636026246.128150) can0 0CFF72F3#E0015930007D0100
(1636026246.146471) can0 0CFF72B1#E0015930007D0100
(1636026246.147019) can0 0CFF72B5#E0015930007D0100
(1636026246.147578) can0 0CFF72BB#E0015930007D0100
(1636026246.148154) can0 0CFF72F3#E0015930007D0100
(1636026246.166468) can0 0CFF72B1#E0015930007D0100
(1636026246.167031) can0 0CFF72B5#E0015930007D0100
(1636026246.167571) can0 0CFF72BB#E0015930007D0100
(1636026246.168146) can0 0CFF72F3#E0015930007D0100
(1636026246.186467) can0 0CFF72B1#E0015930007D0100
(1636026246.187029) can0 0CFF72B5#E0015930007D0100
(1636026246.187593) can0 0CFF72BB#E0015930007D0100
(1636026246.188153) can0 0CFF72F3#E0015930007D0100
(1636026246.188773) can0 0CFF73B1#5B985B98401F0000
(1636026246.189266) can0 0CFF73B5#5B985B98401F0000
(1636026246.189801) can0 0CFF73BB#5B985B98401F0000
(1636026246.190364) can0 0CFF73F3#5B985B98401F0000
(1636026246.190939) can0 0CFF77B1#60EA60EA20000000
(1636026246.191501) can0 0CFF77B5#60EA60EA20000000
(1636026246.192064) can0 0CFF77BB#60EA60EA20000000
(1636026246.192624) can0 0CFF77F3#60EA60EA20000000
(1636026246.195374) can0 18FFD9B1#B888B8885F87B01D
(1636026246.195912) can0 18FFD9B5#B888B8885F87B01D
(1636026246.196455) can0 18FFD9BB#5F87B888B888B01D
(1636026246.197002) can0 18FFD9F3#5F87B888B888B01D
(1636026246.206467) can0 0CFF72B1#E0015930007D0100
(1636026246.207028) can0 0CFF72B5#E0015930007D0100
(1636026246.207576) can0 0CFF72BB#E0015930007D0100
(1636026246.208154) can0 0CFF72F3#E0015930007D0100
(1636026246.226467) can0 0CFF72B1#E0015930007D0100
(1636026246.227033) can0 0CFF72B5#E0015930007D0100
(1636026246.227598) can0 0CFF72BB#E0015930007D0100
(1636026246.228147) can0 0CFF72F3#E0015930007D0100
(1636026246.246471) can0 0CFF72B1#E0015930007D0100
(1636026246.247024) can0 0CFF72B5#E0015930007D0100
(1636026246.247584) can0 0CFF72BB#E0015930007D0100
(1636026246.248148) can0 0CFF72F3#E0015930007D0100
(1636026246.266465) can0 0CFF72B1#E0015930007D0100
(1636026246.267026) can0 0CFF72B5#E0015930007D0100
(1636026246.267583) can0 0CFF72BB#E0015930007D0100
(1636026246.268138) can0 0CFF72F3#E0015930007D0100
(1636026246.286468) can0 0CFF72B1#E0015930007D0100
(1636026246.287033) can0 0CFF72B5#E0015930007D0100
(1636026246.287580) can0 0CFF72BB#E0015930007D0100
(1636026246.288152) can0 0CFF72F3#E0015930007D0100
(1636026246.288690) can0 0CFF73B1#5B985B98401F0000
(1636026246.289252) can0 0CFF73B5#5B985B98401F0000
(1636026246.289819) can0 0CFF73BB#5B985B98401F0000
(1636026246.290376) can0 0CFF73F3#5B985B98401F0000
(1636026246.290932) can0 0CFF77B1#60EA60EA20000000
(1636026246.291501) can0 0CFF77B5#60EA60EA20000000
(1636026246.292058) can0 0CFF77BB#60EA60EA20000000
(1636026246.292632) can0 0CFF77F3#60EA60EA20000000
(1636026246.295375) can0 18FFD9B1#B888B8885F87B01D
(1636026246.295912) can0 18FFD9B5#B888B8885F87B01D
(1636026246.296452) can0 18FFD9BB#5F87B888B888B01D
(1636026246.297001) can0 18FFD9F3#5F87B888B888B01D
(1636026246.306475) can0 0CFF72B1#E0015930007D0100
(1636026246.307028) can0 0CFF72B5#E0015930007D0100
(1636026246.307587) can0 0CFF72BB#E0015930007D0100
(1636026246.308153) can0 0CFF72F3#E0015930007D0100
(1636026246.326454) can0 0CFF72B1#E0015930007D0100
(1636026246.327031) can0 0CFF72B5#E0015930007D0100
(1636026246.327589) can0 0CFF72BB#E0015930007D0100
(1636026246.328139) can0 0CFF72F3#E0015930007D0100
(1636026246.346473) can0 0CFF72B1#E0015930007D0100
(1636026246.347034) can0 0CFF72B5#E0015930007D0100
(1636026246.347592) can0 0CFF72BB#E0015930007D0100
(1636026246.348142) can0 0CFF72F3#E0015930007D0100
(1636026246.366463) can0 0CFF72B1#E0015930007D0100
(1636026246.367035) can0 0CFF72B5#E0015930007D0100
(1636026246.367577) can0 0CFF72BB#E0015930007D0100
(1636026246.368160) can0 0CFF72F3#E0015930007D0100
(1636026246.386452) can0 0CFF72B1#E0015930007D0100
(1636026246.387022) can0 0CFF72B5#E0015930007D0100
(1636026246.387588) can0 0CFF72BB#E0015930007D0100
(1636026246.388137) can0 0CFF72F3#E0015930007D0100
(1636026246.388692) can0 0CFF73B1#5B985B98401F0000
(1636026246.389245) can0 0CFF73B5#5B985B98401F0000
(1636026246.389817) can0 0CFF73BB#5B985B98401F0000
(1636026246.390360) can0 0CFF73F3#5B985B98401F0000
(1636026246.390930) can0 0CFF77B1#60EA60EA20000000
(1636026246.391495) can0 0CFF77B5#60EA60EA20000000
(1636026246.392061) can0 0CFF77BB#60EA60EA20000000
(1636026246.392620) can0 0CFF77F3#60EA60EA20000000
(1636026246.395390) can0 18FFD9B1#B888B8885F87B01D
(1636026246.395915) can0 18FFD9B5#B888B8885F87B01D
(1636026246.396450) can0 18FFD9BB#5F87B888B888B01D
(1636026246.397016) can0 18FFD9F3#5F87B888B888B01D
(1636026246.406461) can0 0CFF72B1#E0015930007D0100
(1636026246.407028) can0 0CFF72B5#E0015930007D0100
(1636026246.407593) can0 0CFF72BB#E0015930007D0100
(1636026246.408142) can0 0CFF72F3#E0015930007D0100
(1636026246.426473) can0 0CFF72B1#E0015930007D0100
(1636026246.427046) can0 0CFF72B5#E0015930007D0100
(1636026246.427585) can0 0CFF72BB#E0015930007D0100
(1636026246.428155) can0 0CFF72F3#E0015930007D0100
(1636026246.446464) can0 0CFF72B1#E0015930007D0100
(1636026246.447023) can0 0CFF72B5#E0015930007D0100
(1636026246.447590) can0 0CFF72BB#E0015930007D0100
(1636026246.448158) can0 0CFF72F3#E0015930007D0100
(1636026246.466457) can0 0CFF72B1#E0015930007D0100
(1636026246.467025) can0 0CFF72B5#E0015930007D0100
(1636026246.467590) can0 0CFF72BB#E0015930007D0100
(1636026246.468150) can0 0CFF72F3#E0015930007D0100
(1636026246.486462) can0 0CFF72B1#E0015930007D0100
(1636026246.487027) can0 0CFF72B5#E0015930007D0100
(1636026246.487593) can0 0CFF72BB#E0015930007D0100
(1636026246.488153) can0 0CFF72F3#E0015930007D0100
(1636026246.488709) can0 0CFF73B1#5B985B98401F0000
(1636026246.489258) can0 0CFF73B5#5B985B98401F0000
(1636026246.489811) can0 0CFF73BB#5B985B98401F0000
(1636026246.490363) can0 0CFF73F3#5B985B98401F0000
(1636026246.490931) can0 0CFF77B1#60EA60EA20000000
(1636026246.491498) can0 0CFF77B5#60EA60EA20000000
(1636026246.492054) can0 0CFF77BB#60EA60EA20000000
(1636026246.492613) can0 0CFF77F3#60EA60EA20000000
(1636026246.493189) can0 0CFF78B1#2C812C812C810300
(1636026246.493805) can0 0CFF78B5#2C812C812C810300
(1636026246.494304) can0 0CFF78BB#2C812C812C810300
(1636026246.494860) can0 0CFF78F3#2C812C812C813200
(1636026246.498710) can0 18FFD9B1#B888B8885F87B01D
(1636026246.499252) can0 18FFD9B5#B888B8885F87B01D
(1636026246.499806) can0 18FFD9BB#5F87B888B888B01D
(1636026246.500336) can0 18FFD9F3#5F87B888B888B01D
(1636026246.500906) can0 18FFDFB1#5091409C409C2C81
(1636026246.501441) can0 18FFDFB5#5091409C409C2C81
(1636026246.501982) can0 18FFDFBB#5091409C409C2C81
(1636026246.502539) can0 18FFDFF3#E092409C409C2C81
(1636026246.503126) can0 18FFE0B1#0000000000000000
(1636026246.503730) can0 18FFE0B5#0000000000000000
(1636026246.504316) can0 18FFE0BB#0000000000000000
(1636026246.504912) can0 18FFE0F3#0000000000000000
(1636026246.505500) can0 18FFE1B1#0000000000000000
(1636026246.506076) can0 18FFE1B5#0000000000000000
(1636026246.506682) can0 18FFE1BB#0000000000000000
(1636026246.507280) can0 18FFE1F3#0000000000000000
(1636026246.507849) can0 18FFE2B1#0303000000000000
(1636026246.508431) can0 18FFE2B5#0303000000000000
(1636026246.509000) can0 18FFE2BB#FF03000000000000
(1636026246.509586) can0 18FFE2F3#0303000000000000
(1636026246.510157) can0 0CFF72B1#E0015930007D0100
(1636026246.510711) can0 0CFF72B5#E0015930007D0100
(1636026246.511281) can0 0CFF72BB#E0015930007D0100
(1636026246.511843) can0 0CFF72F3#E0015930007D0100
(1636026246.526465) can0 0CFF72B1#E0015930007D0100
(1636026246.527032) can0 0CFF72B5#E0015930007D0100
(1636026246.527599) can0 0CFF72BB#E0015930007D0100
(1636026246.528158) can0 0CFF72F3#E0015930007D0100
(1636026246.546478) can0 0CFF72B1#E0015930007D0100
(1636026246.547036) can0 0CFF72B5#E0015930007D0100
(1636026246.547591) can0 0CFF72BB#E0015930007D0100
(1636026246.548160) can0 0CFF72F3#E0015930007D0100
(1636026246.566459) can0 0CFF72B1#E0015930007D0100
(1636026246.567018) can0 0CFF72B5#E0015930007D0100
(1636026246.567587) can0 0CFF72BB#E0015930007D0100
(1636026246.568143) can0 0CFF72F3#E0015930007D0100
(1636026246.586472) can0 0CFF72B1#E0015930007D0100
(1636026246.587040) can0 0CFF72B5#E0015930007D0100
(1636026246.587587) can0 0CFF72BB#E0015930007D0100
(1636026246.588145) can0 0CFF72F3#E0015930007D0100
(1636026246.588692) can0 0CFF73B1#5B985B98401F0000
(1636026246.589251) can0 0CFF73B5#5B985B98401F0000
(1636026246.589817) can0 0CFF73BB#5B985B98401F0000
(1636026246.590367) can0 0CFF73F3#5B985B98401F0000
(1636026246.590943) can0 0CFF77B1#60EA60EA20000000
(1636026246.591501) can0 0CFF77B5#60EA60EA20000000
(1636026246.592067) can0 0CFF77BB#60EA60EA20000000
(1636026246.592627) can0 0CFF77F3#60EA60EA20000000
(1636026246.595370) can0 18FFD9B1#B888B8885F87B01D
(1636026246.595903) can0 18FFD9B5#B888B8885F87B01D
(1636026246.596453) can0 18FFD9BB#5F87B888B888B01D
(1636026246.596994) can0 18FFD9F3#5F87B888B888B01D
(1636026246.606458) can0 0CFF72B1#E0015930007D0100
(1636026246.607024) can0 0CFF72B5#E0015930007D0100
(1636026246.607589) can0 0CFF72BB#E0015930007D0100
(1636026246.608149) can0 0CFF72F3#E0015930007D0100
(1636026246.626456) can0 0CFF72B1#E0015930007D0100
(1636026246.627027) can0 0CFF72B5#E0015930007D0100
(1636026246.627592) can0 0CFF72BB#E0015930007D0100
(1636026246.628142) can0 0CFF72F3#E0015930007D0100
(1636026246.646472) can0 0CFF72B1#E0015930007D0100
(1636026246.647048) can0 0CFF72B5#E0015930007D0100
(1636026246.647596) can0 0CFF72BB#E0015930007D0100
(1636026246.648153) can0 0CFF72F3#E0015930007D0100
(1636026246.666465) can0 0CFF72B1#E0015930007D0100
(1636026246.667031) can0 0CFF72B5#E0015930007D0100
(1636026246.667588) can0 0CFF72BB#E0015930007D0100
(1636026246.668147) can0 0CFF72F3#E0015930007D0100
(1636026246.686465) can0 0CFF72B1#E0015930007D0100
(1636026246.687034) can0 0CFF72B5#E0015930007D0100
(1636026246.687580) can0 0CFF72BB#E0015930007D0100
(1636026246.688149) can0 0CFF72F3#E0015930007D0100
(1636026246.688705) can0 0CFF73B1#5B985B98401F0000
(1636026246.689255) can0 0CFF73B5#5B985B98401F0000
(1636026246.689831) can0 0CFF73BB#5B985B98401F0000
(1636026246.690370) can0 0CFF73F3#5B985B98401F0000
(1636026246.690938) can0 0CFF77B1#60EA60EA20000000
(1636026246.691495) can0 0CFF77B5#60EA60EA20000000
(1636026246.692064) can0 0CFF77BB#60EA60EA20000000
(1636026246.692629) can0 0CFF77F3#60EA60EA20000000
(1636026246.695371) can0 18FFD9B1#B888B8885F87B01D
(1636026246.695907) can0 18FFD9B5#B888B8885F87B01D
(1636026246.696460) can0 18FFD9BB#5F87B888B888B01D
(1636026246.696995) can0 18FFD9F3#5F87B888B888B01D
(1636026246.706461) can0 0CFF72B1#E0015930007D0100
(1636026246.707027) can0 0CFF72B5#E0015930007D0100
(1636026246.707593) can0 0CFF72BB#E0015930007D0100
(1636026246.708142) can0 0CFF72F3#E0015930007D0100
(1636026246.726463) can0 0CFF72B1#E0015930007D0100
(1636026246.727029) can0 0CFF72B5#E0015930007D0100
(1636026246.727597) can0 0CFF72BB#E0015930007D0100
(1636026246.728145) can0 0CFF72F3#E0015930007D0100
(1636026246.746473) can0 0CFF72B1#E0015930007D0100
(1636026246.747031) can0 0CFF72B5#E0015930007D0100
(1636026246.747597) can0 0CFF72BB#E0015930007D0100
(1636026246.748147) can0 0CFF72F3#E0015930007D0100
(1636026246.766477) can0 0CFF72B1#E0015930007D0100
(1636026246.767026) can0 0CFF72B5#E0015930007D0100
(1636026246.767591) can0 0CFF72BB#E0015930007D0100
(1636026246.768150) can0 0CFF72F3#E0015930007D0100
(1636026246.786475) can0 0CFF72B1#E0015930007D0100
(1636026246.787037) can0 0CFF72B5#E0015930007D0100
(1636026246.787595) can0 0CFF72BB#E0015930007D0100
(1636026246.788152) can0 0CFF72F3#E0015930007D0100
(1636026246.788701) can0 0CFF73B1#5B985B98401F0000
(1636026246.789248) can0 0CFF73B5#5B985B98401F0000
(1636026246.789843) can0 0CFF73BB#5B985B98401F0000
(1636026246.790363) can0 0CFF73F3#5B985B98401F0000
(1636026246.790929) can0 0CFF77B1#60EA60EA20000000
(1636026246.791498) can0 0CFF77B5#60EA60EA20000000
(1636026246.792067) can0 0CFF77BB#60EA60EA20000000
(1636026246.792623) can0 0CFF77F3#60EA60EA20000000
(1636026246.795384) can0 18FFD9B1#B888B8885F87B01D
(1636026246.795917) can0 18FFD9B5#B888B8885F87B01D
(1636026246.796459) can0 18FFD9BB#5F87B888B888B01D
(1636026246.797009) can0 18FFD9F3#5F87B888B888B01D
(1636026246.806471) can0 0CFF72B1#E0015930007D0100
(1636026246.807030) can0 0CFF72B5#E0015930007D0100
(1636026246.807596) can0 0CFF72BB#E0015930007D0100
(1636026246.808145) can0 0CFF72F3#E0015930007D0100
(1636026246.826475) can0 0CFF72B1#E0015930007D0100
(1636026246.827033) can0 0CFF72B5#E0015930007D0100
(1636026246.827599) can0 0CFF72BB#E0015930007D0100
(1636026246.828148) can0 0CFF72F3#E0015930007D0100
(1636026246.846463) can0 0CFF72B1#E0015930007D0100
(1636026246.847025) can0 0CFF72B5#E0015930007D0100
(1636026246.847603) can0 0CFF72BB#E0015930007D0100
(1636026246.848151) can0 0CFF72F3#E0015930007D0100
(1636026246.866465) can0 0CFF72B1#E0015930007D0100
(1636026246.867028) can0 0CFF72B5#E0015930007D0100
(1636026246.867604) can0 0CFF72BB#E0015930007D0100
(1636026246.868154) can0 0CFF72F3#E0015930007D0100
(1636026246.886461) can0 0CFF72B1#E0015930007D0100
(1636026246.887031) can0 0CFF72B5#E0015930007D0100
(1636026246.887590) can0 0CFF72BB#E0015930007D0100
(1636026246.888138) can0 0CFF72F3#E0015930007D0100
(1636026246.888706) can0 0CFF73B1#5B985B98401F0000
(1636026246.889278) can0 0CFF73B5#5B985B98401F0000
(1636026246.889859) can0 0CFF73BB#5B985B98401F0000
(1636026246.890367) can0 0CFF73F3#5B985B98401F0000
(1636026246.890932) can0 0CFF77B1#60EA60EA20000000
(1636026246.891502) can0 0CFF77B5#60EA60EA20000000
(1636026246.892063) can0 0CFF77BB#60EA60EA20000000
(1636026246.892628) can0 0CFF77F3#60EA60EA20000000
(1636026246.895370) can0 18FFD9B1#B888B8885F87B01D
(1636026246.895904) can0 18FFD9B5#B888B8885F87B01D
(1636026246.896457) can0 18FFD9BB#5F87B888B888B01D
(1636026246.896993) can0 18FFD9F3#5F87B888B888B01D
(1636026246.906468) can0 0CFF72B1#E0015930007D0100
(1636026246.907024) can0 0CFF72B5#E0015930007D0100
(1636026246.907585) can0 0CFF72BB#E0015930007D0100
(1636026246.908158) can0 0CFF72F3#E0015930007D0100
(1636026246.926471) can0 0CFF72B1#E0015930007D0100
(1636026246.927046) can0 0CFF72B5#E0015930007D0100
(1636026246.927585) can0 0CFF72BB#E0015930007D0100
(1636026246.928161) can0 0CFF72F3#E0015930007D0100
(1636026246.946466) can0 0CFF72B1#E0015930007D0100
(1636026246.947029) can0 0CFF72B5#E0015930007D0100
(1636026246.947598) can0 0CFF72BB#E0015930007D0100
(1636026246.948144) can0 0CFF72F3#E0015930007D0100
(1636026246.966469) can0 0CFF72B1#E0015930007D0100
(1636026246.967032) can0 0CFF72B5#E0015930007D0100
(1636026246.967614) can0 0CFF72BB#E0015930007D0100
(1636026246.968146) can0 0CFF72F3#E0015930007D0100
(1636026246.986468) can0 0CFF72B1#E0015930007D0100
(1636026246.987034) can0 0CFF72B5#E0015930007D0100
(1636026246.987593) can0 0CFF72BB#E0015930007D0100
(1636026246.988150) can0 0CFF72F3#E0015930007D0100
(1636026246.988719) can0 0CFF73B1#5B985B98401F0000
(1636026246.989245) can0 0CFF73B5#5B985B98401F0000
(1636026246.989871) can0 0CFF73BB#5B985B98401F0000
(1636026246.990371) can0 0CFF73F3#5B985B98401F0000
(1636026246.990935) can0 0CFF77B1#60EA60EA20000000
(1636026246.991505) can0 0CFF77B5#60EA60EA20000000
(1636026246.992082) can0 0CFF77BB#60EA60EA20000000
(1636026246.992620) can0 0CFF77F3#60EA60EA20000000
(1636026246.995370) can0 18FFD9B1#B888B8885F87B01D
(1636026246.995916) can0 18FFD9B5#B888B8885F87B01D
(1636026246.996474) can0 18FFD9BB#5F87B888B888B01D
(1636026246.996997) can0 18FFD9F3#5F87B888B888B01D
(1636026247.006474) can0 0CFF72B1#E0015930007D0100
(1636026247.007027) can0 0CFF72B5#E0015930007D0100
(1636026247.007596) can0 0CFF72BB#E0015930007D0100
(1636026247.008162) can0 0CFF72F3#E0015930007D0100
(1636026247.026476) can0 0CFF72B1#E0015930007D0100
(1636026247.027030) can0 0CFF72B5#E0015930007D0100
(1636026247.027600) can0 0CFF72BB#E0015930007D0100
(1636026247.028153) can0 0CFF72F3#E0015930007D0100
(1636026247.046465) can0 0CFF72B1#E0015930007D0100
(1636026247.047041) can0 0CFF72B5#E0015930007D0100
(1636026247.047600) can0 0CFF72BB#E0015930007D0100
(1636026247.048147) can0 0CFF72F3#E0015930007D0100
(1636026247.066478) can0 0CFF72B1#E0015930007D0100
(1636026247.067035) can0 0CFF72B5#E0015930007D0100
(1636026247.067585) can0 0CFF72BB#E0015930007D0100
(1636026247.068150) can0 0CFF72F3#E0015930007D0100
(1636026247.086485) can0 0CFF72B1#E0015930007D0100
(1636026247.087028) can0 0CFF72B5#E0015930007D0100
(1636026247.087588) can0 0CFF72BB#E0015930007D0100
(1636026247.088152) can0 0CFF72F3#E0015930007D0100
(1636026247.088702) can0 0CFF73B1#5B985B98401F0000
(1636026247.089258) can0 0CFF73B5#5B985B98401F0000
(1636026247.089814) can0 0CFF73BB#5B985B98401F0000
(1636026247.090367) can0 0CFF73F3#5B985B98401F0000
(1636026247.090939) can0 0CFF77B1#60EA60EA20000000
(1636026247.091508) can0 0CFF77B5#60EA60EA20000000
(1636026247.092067) can0 0CFF77BB#60EA60EA20000000
(1636026247.092633) can0 0CFF77F3#60EA60EA20000000
(1636026247.095384) can0 18FFD9B1#B888B8885F87B01D
(1636026247.095920) can0 18FFD9B5#B888B8885F87B01D
(1636026247.096458) can0 18FFD9BB#5F87B888B888B01D
(1636026247.097009) can0 18FFD9F3#5F87B888B888B01D
(1636026247.106484) can0 0CFF72B1#E0015930007D0100
(1636026247.107040) can0 0CFF72B5#E0015930007D0100
(1636026247.107610) can0 0CFF72BB#E0015930007D0100
(1636026247.108155) can0 0CFF72F3#E0015930007D0100
(1636026247.126467) can0 0CFF72B1#E0015930007D0100
(1636026247.127033) can0 0CFF72B5#E0015930007D0100
(1636026247.127612) can0 0CFF72BB#E0015930007D0100
(1636026247.128158) can0 0CFF72F3#E0015930007D0100
(1636026247.146472) can0 0CFF72B1#E0015930007D0100
(1636026247.147035) can0 0CFF72B5#E0015930007D0100
(1636026247.147587) can0 0CFF72BB#E0015930007D0100
(1636026247.148160) can0 0CFF72F3#E0015930007D0100
(1636026247.166473) can0 0CFF72B1#E0015930007D0100
(1636026247.167028) can0 0CFF72B5#E0015930007D0100
(1636026247.167587) can0 0CFF72BB#E0015930007D0100
(1636026247.168144) can0 0CFF72F3#E0015930007D0100
(1636026247.186468) can0 0CFF72B1#E0015930007D0100
(1636026247.187031) can0 0CFF72B5#E0015930007D0100
(1636026247.187590) can0 0CFF72BB#E0015930007D0100
(1636026247.188156) can0 0CFF72F3#E0015930007D0100
(1636026247.188777) can0 0CFF73B1#5B985B98401F0000
(1636026247.189256) can0 0CFF73B5#5B985B98401F0000
(1636026247.189812) can0 0CFF73BB#5B985B98401F0000
(1636026247.190371) can0 0CFF73F3#5B985B98401F0000
(1636026247.190932) can0 0CFF77B1#60EA60EA20000000
(1636026247.191495) can0 0CFF77B5#60EA60EA20000000
