(1626182777.444408) can0 0CFF72B1#E0012733007D0100
(1626182777.444959) can0 0CFF72B5#E0012733007D0100
(1626182777.445530) can0 0CFF72BB#E0012733007D0100
(1626182777.446084) can0 0CFF72D7#E0012733007D0100
(1626182777.447208) can0 0CFF72F3#E0012733007D0100
(1626182777.464405) can0 0CFF72B1#E0012733007D0100
(1626182777.464957) can0 0CFF72B5#E0012733007D0100
(1626182777.465511) can0 0CFF72BB#E0012733007D0100
(1626182777.466085) can0 0CFF72D7#E0012733007D0100
(1626182777.467190) can0 0CFF72F3#E0012733007D0100
(1626182777.467752) can0 0CFF73B1#EB99EB99D03E0000
(1626182777.468317) can0 0CFF73B5#EB99EB99D03E0000
(1626182777.468865) can0 0CFF73BB#EB99EB99D03E0000
(1626182777.469418) can0 0CFF73D7#EB99EB99D03E0000
(1626182777.470536) can0 0CFF73F3#EB99EB99D03E0000
(1626182777.471083) can0 0CFF77B1#9A199A1920000000
(1626182777.471712) can0 0CFF77B5#9A199A1920000000
(1626182777.472211) can0 0CFF77BB#9A199A1920000000
(1626182777.472754) can0 0CFF77D7#9A199A1920000000
(1626182777.473885) can0 0CFF77F3#9A199A1920000000
(1626182777.477758) can0 18FFD9B1#1987EA88EA88403D
(1626182777.478322) can0 18FFD9B5#1987EA88EA88403D
(1626182777.478847) can0 18FFD9BB#1987EA88EA88403D
(1626182777.479396) can0 18FFD9D7#1987EA88EA88403D
(1626182777.480483) can0 18FFD9F3#1987EA88EA88403D
(1626182777.484413) can0 0CFF72B1#E0012733007D0100
(1626182777.484964) can0 0CFF72B5#E0012733007D0100
(1626182777.485523) can0 0CFF72BB#E0012733007D0100
(1626182777.486072) can0 0CFF72D7#E0012733007D0100
(1626182777.487196) can0 0CFF72F3#E0012733007D0100
(1626182777.504399) can0 0CFF72B1#E0012733007D0100
(1626182777.504950) can0 0CFF72B5#E0012733007D0100
(1626182777.505515) can0 0CFF72BB#E0012733007D0100
(1626182777.506077) can0 0CFF72D7#E0012733007D0100
(1626182777.507189) can0 0CFF72F3#E0012733007D0100
(1626182777.524406) can0 0CFF72B1#E0012733007D0100
(1626182777.524948) can0 0CFF72B5#E0012733007D0100
(1626182777.525515) can0 0CFF72BB#E0012733007D0100
(1626182777.526074) can0 0CFF72D7#E0012733007D0100
(1626182777.527196) can0 0CFF72F3#E0012733007D0100
(1626182777.544407) can0 0CFF72B1#E0012733007D0100
(1626182777.544959) can0 0CFF72B5#E0012733007D0100
(1626182777.545511) can0 0CFF72BB#E0012733007D0100
(1626182777.546085) can0 0CFF72D7#E0012733007D0100
(1626182777.547195) can0 0CFF72F3#E0012733007D0100
(1626182777.564413) can0 0CFF72B1#E0012733007D0100
(1626182777.564947) can0 0CFF72B5#E0012733007D0100
(1626182777.565516) can0 0CFF72BB#E0012733007D0100
(1626182777.566073) can0 0CFF72D7#E0012733007D0100
(1626182777.567197) can0 0CFF72F3#E0012733007D0100
(1626182777.567751) can0 0CFF73B1#EB99EB99D03E0000
(1626182777.568310) can0 0CFF73B5#EB99EB99D03E0000
(1626182777.568861) can0 0CFF73BB#EB99EB99D03E0000
(1626182777.569424) can0 0CFF73D7#EB99EB99D03E0000
(1626182777.570549) can0 0CFF73F3#EB99EB99D03E0000
(1626182777.571104) can0 0CFF77B1#9A199A1920000000
(1626182777.571653) can0 0CFF77B5#9A199A1920000000
(1626182777.572200) can0 0CFF77BB#9A199A1920000000
(1626182777.572765) can0 0CFF77D7#9A199A1920000000
(1626182777.573878) can0 0CFF77F3#9A199A1920000000
(1626182777.577761) can0 18FFD9B1#1987EA88EA88403D
(1626182777.578313) can0 18FFD9B5#1987EA88EA88403D
(1626182777.578852) can0 18FFD9BB#1987EA88EA88403D
(1626182777.579398) can0 18FFD9D7#1987EA88EA88403D
(1626182777.580485) can0 18FFD9F3#1987EA88EA88403D
(1626182777.584406) can0 0CFF72B1#E0012733007D0100
(1626182777.584956) can0 0CFF72B5#E0012733007D0100
(1626182777.585521) can0 0CFF72BB#E0012733007D0100
(1626182777.586156) can0 0CFF72D7#E0012733007D0100
(1626182777.587193) can0 0CFF72F3#E0012733007D0100
(1626182777.604407) can0 0CFF72B1#E0012733007D0100
(1626182777.604952) can0 0CFF72B5#E0012733007D0100
(1626182777.605518) can0 0CFF72BB#E0012733007D0100
(1626182777.606068) can0 0CFF72D7#E0012733007D0100
(1626182777.607205) can0 0CFF72F3#E0012733007D0100
(1626182777.624413) can0 0CFF72B1#E0012733007D0100
(1626182777.624964) can0 0CFF72B5#E0012733007D0100
(1626182777.625516) can0 0CFF72BB#E0012733007D0100
(1626182777.626083) can0 0CFF72D7#E0012733007D0100
(1626182777.627196) can0 0CFF72F3#E0012733007D0100
(1626182777.644402) can0 0CFF72B1#E0012733007D0100
(1626182777.644953) can0 0CFF72B5#E0012733007D0100
(1626182777.645526) can0 0CFF72BB#E0012733007D0100
(1626182777.646092) can0 0CFF72D7#E0012733007D0100
(1626182777.647204) can0 0CFF72F3#E0012733007D0100
(1626182777.664493) can0 0CFF72B1#E0012733007D0100
(1626182777.664960) can0 0CFF72B5#E0012733007D0100
(1626182777.665517) can0 0CFF72BB#E0012733007D0100
(1626182777.666066) can0 0CFF72D7#E0012733007D0100
(1626182777.667199) can0 0CFF72F3#E0012733007D0100
(1626182777.667755) can0 0CFF73B1#EB99EB99D03E0000
(1626182777.668308) can0 0CFF73B5#EB99EB99D03E0000
(1626182777.668862) can0 0CFF73BB#EB99EB99D03E0000
(1626182777.669423) can0 0CFF73D7#EB99EB99D03E0000
(1626182777.670538) can0 0CFF73F3#EB99EB99D03E0000
(1626182777.671095) can0 0CFF77B1#9A199A1920000000
(1626182777.671642) can0 0CFF77B5#9A199A1920000000
(1626182777.672191) can0 0CFF77BB#9A199A1920000000
(1626182777.672767) can0 0CFF77D7#9A199A1920000000
(1626182777.673883) can0 0CFF77F3#9A199A1920000000
(1626182777.677765) can0 18FFD9B1#1987EA88EA88403D
(1626182777.678312) can0 18FFD9B5#1987EA88EA88403D
(1626182777.678850) can0 18FFD9BB#1987EA88EA88403D
(1626182777.679393) can0 18FFD9D7#1987EA88EA88403D
(1626182777.680494) can0 18FFD9F3#1987EA88EA88403D
(1626182777.684411) can0 0CFF72B1#E0012733007D0100
(1626182777.684954) can0 0CFF72B5#E0012733007D0100
(1626182777.685519) can0 0CFF72BB#E0012733007D0100
(1626182777.686069) can0 0CFF72D7#E0012733007D0100
(1626182777.687203) can0 0CFF72F3#E0012733007D0100
(1626182777.704415) can0 0CFF72B1#E0012733007D0100
(1626182777.704955) can0 0CFF72B5#E0012733007D0100
(1626182777.705522) can0 0CFF72BB#E0012733007D0100
(1626182777.706071) can0 0CFF72D7#E0012733007D0100
(1626182777.707197) can0 0CFF72F3#E0012733007D0100
(1626182777.724408) can0 0CFF72B1#E0012733007D0100
(1626182777.724955) can0 0CFF72B5#E0012733007D0100
(1626182777.725514) can0 0CFF72BB#E0012733007D0100
(1626182777.726082) can0 0CFF72D7#E0012733007D0100
(1626182777.727198) can0 0CFF72F3#E0012733007D0100
(1626182777.744405) can0 0CFF72B1#E0012733007D0100
(1626182777.744956) can0 0CFF72B5#E0012733007D0100
(1626182777.745517) can0 0CFF72BB#E0012733007D0100
(1626182777.746080) can0 0CFF72D7#E0012733007D0100
(1626182777.747199) can0 0CFF72F3#E0012733007D0100
(1626182777.764406) can0 0CFF72B1#E0012733007D0100
(1626182777.764966) can0 0CFF72B5#E0012733007D0100
(1626182777.765510) can0 0CFF72BB#E0012733007D0100
(1626182777.766080) can0 0CFF72D7#E0012733007D0100
(1626182777.767251) can0 0CFF72F3#E0012733007D0100
(1626182777.767769) can0 0CFF73B1#EB99EB99D03E0000
(1626182777.768311) can0 0CFF73B5#EB99EB99D03E0000
(1626182777.768885) can0 0CFF73BB#EB99EB99D03E0000
(1626182777.769419) can0 0CFF73D7#EB99EB99D03E0000
(1626182777.770529) can0 0CFF73F3#EB99EB99D03E0000
(1626182777.771100) can0 0CFF77B1#9A199A1920000000
(1626182777.771651) can0 0CFF77B5#9A199A1920000000
(1626182777.772202) can0 0CFF77BB#9A199A1920000000
(1626182777.772764) can0 0CFF77D7#9A199A1920000000
(1626182777.773886) can0 0CFF77F3#9A199A1920000000
(1626182777.777758) can0 18FFD9B1#1987EA88EA88403D
(1626182777.778311) can0 18FFD9B5#1987EA88EA88403D
(1626182777.778852) can0 18FFD9BB#1987EA88EA88403D
(1626182777.779403) can0 18FFD9D7#1987EA88EA88403D
(1626182777.780499) can0 18FFD9F3#1987EA88EA88403D
(1626182777.784400) can0 0CFF72B1#E0012733007D0100
(1626182777.784946) can0 0CFF72B5#E0012733007D0100
(1626182777.785509) can0 0CFF72BB#E0012733007D0100
(1626182777.786068) can0 0CFF72D7#E0012733007D0100
(1626182777.787202) can0 0CFF72F3#E0012733007D0100
(1626182777.804401) can0 0CFF72B1#E0012733007D0100
(1626182777.804956) can0 0CFF72B5#E0012733007D0100
(1626182777.805516) can0 0CFF72BB#E0012733007D0100
(1626182777.806065) can0 0CFF72D7#E0012733007D0100
(1626182777.807190) can0 0CFF72F3#E0012733007D0100
(1626182777.824410) can0 0CFF72B1#E0012733007D0100
(1626182777.824951) can0 0CFF72B5#E0012733007D0100
(1626182777.825521) can0 0CFF72BB#E0012733007D0100
(1626182777.826078) can0 0CFF72D7#E0012733007D0100
(1626182777.827192) can0 0CFF72F3#E0012733007D0100
(1626182777.844403) can0 0CFF72B1#E0012733007D0100
(1626182777.844966) can0 0CFF72B5#E0012733007D0100
(1626182777.845552) can0 0CFF72BB#E0012733007D0100
(1626182777.846098) can0 0CFF72D7#E0012733007D0100
(1626182777.847203) can0 0CFF72F3#E0012733007D0100
(1626182777.864413) can0 0CFF72B1#E0012733007D0100
(1626182777.865007) can0 0CFF72B5#E0012733007D0100
(1626182777.865517) can0 0CFF72BB#E0012733007D0100
(1626182777.866086) can0 0CFF72D7#E0012733007D0100
(1626182777.867199) can0 0CFF72F3#E0012733007D0100
(1626182777.867767) can0 0CFF73B1#EB99EB99D03E0000
(1626182777.868321) can0 0CFF73B5#EB99EB99D03E0000
(1626182777.868881) can0 0CFF73BB#EB99EB99D03E0000
(1626182777.869422) can0 0CFF73D7#EB99EB99D03E0000
(1626182777.870538) can0 0CFF73F3#EB99EB99D03E0000
(1626182777.871100) can0 0CFF77B1#9A199A1920000000
(1626182777.871654) can0 0CFF77B5#9A199A1920000000
(1626182777.872211) can0 0CFF77BB#9A199A1920000000
(1626182777.872769) can0 0CFF77D7#9A199A1920000000
(1626182777.873892) can0 0CFF77F3#9A199A1920000000
(1626182777.877766) can0 18FFD9B1#1987EA88EA88403D
(1626182777.878316) can0 18FFD9B5#1987EA88EA88403D
(1626182777.878869) can0 18FFD9BB#1987EA88EA88403D
(1626182777.879394) can0 18FFD9D7#1987EA88EA88403D
(1626182777.880492) can0 18FFD9F3#1987EA88EA88403D
(1626182777.884413) can0 0CFF72B1#E0012733007D0100
(1626182777.884965) can0 0CFF72B5#E0012733007D0100
(1626182777.885523) can0 0CFF72BB#E0012733007D0100
(1626182777.886092) can0 0CFF72D7#E0012733007D0100
(1626182777.887191) can0 0CFF72F3#E0012733007D0100
(1626182777.904401) can0 0CFF72B1#E0012733007D0100
(1626182777.904957) can0 0CFF72B5#E0012733007D0100
(1626182777.905518) can0 0CFF72BB#E0012733007D0100
(1626182777.906079) can0 0CFF72D7#E0012733007D0100
(1626182777.907199) can0 0CFF72F3#E0012733007D0100
(1626182777.924431) can0 0CFF72B1#E0012733007D0100
(1626182777.924977) can0 0CFF72B5#E0012733007D0100
(1626182777.925532) can0 0CFF72BB#E0012733007D0100
(1626182777.926107) can0 0CFF72D7#E0012733007D0100
(1626182777.927216) can0 0CFF72F3#E0012733007D0100
(1626182777.944426) can0 0CFF72B1#E0012733007D0100
(1626182777.944969) can0 0CFF72B5#E0012733007D0100
(1626182777.945515) can0 0CFF72BB#E0012733007D0100
(1626182777.946090) can0 0CFF72D7#E0012733007D0100
(1626182777.947197) can0 0CFF72F3#E0012733007D0100
(1626182777.964421) can0 0CFF72B1#E0012733007D0100
(1626182777.964969) can0 0CFF72B5#E0012733007D0100
(1626182777.965539) can0 0CFF72BB#E0012733007D0100
(1626182777.966093) can0 0CFF72D7#E0012733007D0100
(1626182777.967198) can0 0CFF72F3#E0012733007D0100
(1626182777.967810) can0 0CFF73B1#EB99EB99D03E0000
(1626182777.968315) can0 0CFF73B5#EB99EB99D03E0000
(1626182777.968873) can0 0CFF73BB#EB99EB99D03E0000
(1626182777.969435) can0 0CFF73D7#EB99EB99D03E0000
(1626182777.970553) can0 0CFF73F3#EB99EB99D03E0000
(1626182777.971111) can0 0CFF77B1#9A199A1920000000
(1626182777.971659) can0 0CFF77B5#9A199A1920000000
(1626182777.972206) can0 0CFF77BB#9A199A1920000000
(1626182777.972784) can0 0CFF77D7#9A199A1920000000
(1626182777.973899) can0 0CFF77F3#9A199A1920000000
(1626182777.977786) can0 18FFD9B1#1987EA88EA88403D
(1626182777.978317) can0 18FFD9B5#1987EA88EA88403D
(1626182777.978868) can0 18FFD9BB#1987EA88EA88403D
(1626182777.979396) can0 18FFD9D7#1987EA88EA88403D
(1626182777.980504) can0 18FFD9F3#1987EA88EA88403D
(1626182777.984423) can0 0CFF72B1#E0012733007D0100
(1626182777.984970) can0 0CFF72B5#E0012733007D0100
(1626182777.985523) can0 0CFF72BB#E0012733007D0100
(1626182777.986085) can0 0CFF72D7#E0012733007D0100
(1626182777.987204) can0 0CFF72F3#E0012733007D0100
(1626182778.004419) can0 0CFF72B1#E0012733007D0100
(1626182778.004972) can0 0CFF72B5#E0012733007D0100
(1626182778.005519) can0 0CFF72BB#E0012733007D0100
(1626182778.006092) can0 0CFF72D7#E0012733007D0100
(1626182778.007203) can0 0CFF72F3#E0012733007D0100
(1626182778.024421) can0 0CFF72B1#E0012733007D0100
(1626182778.024956) can0 0CFF72B5#E0012733007D0100
(1626182778.025509) can0 0CFF72BB#E0012733007D0100
(1626182778.026080) can0 0CFF72D7#E0012733007D0100
(1626182778.027199) can0 0CFF72F3#E0012733007D0100
(1626182778.044413) can0 0CFF72B1#E0012733007D0100
(1626182778.044961) can0 0CFF72B5#E0012733007D0100
(1626182778.045532) can0 0CFF72BB#E0012733007D0100
(1626182778.046161) can0 0CFF72D7#E0012733007D0100
(1626182778.047209) can0 0CFF72F3#E0012733007D0100
(1626182778.064412) can0 0CFF72B1#E0012733007D0100
(1626182778.064965) can0 0CFF72B5#E0012733007D0100
(1626182778.065513) can0 0CFF72BB#E0012733007D0100
(1626182778.066086) can0 0CFF72D7#E0012733007D0100
(1626182778.067204) can0 0CFF72F3#E0012733007D0100
(1626182778.067790) can0 0CFF73B1#EB99EB99D03E0000
(1626182778.068316) can0 0CFF73B5#EB99EB99D03E0000
(1626182778.068866) can0 0CFF73BB#EB99EB99D03E0000
(1626182778.069434) can0 0CFF73D7#EB99EB99D03E0000
(1626182778.070622) can0 0CFF73F3#EB99EB99D03E0000
(1626182778.071107) can0 0CFF77B1#9A199A1920000000
(1626182778.071659) can0 0CFF77B5#9A199A1920000000
(1626182778.072210) can0 0CFF77BB#9A199A1920000000
(1626182778.072793) can0 0CFF77D7#9A199A1920000000
(1626182778.073895) can0 0CFF77F3#9A199A1920000000
(1626182778.077792) can0 18FFD9B1#1987EA88EA88403D
(1626182778.078322) can0 18FFD9B5#1987EA88EA88403D
(1626182778.078864) can0 18FFD9BB#1987EA88EA88403D
(1626182778.079403) can0 18FFD9D7#1987EA88EA88403D
(1626182778.080494) can0 18FFD9F3#1987EA88EA88403D
(1626182778.084424) can0 0CFF72B1#E0012733007D0100
(1626182778.084957) can0 0CFF72B5#E0012733007D0100
(1626182778.085529) can0 0CFF72BB#E0012733007D0100
(1626182778.086078) can0 0CFF72D7#E0012733007D0100
(1626182778.087209) can0 0CFF72F3#E0012733007D0100
(1626182778.104419) can0 0CFF72B1#E0012733007D0100
(1626182778.104962) can0 0CFF72B5#E0012733007D0100
(1626182778.105522) can0 0CFF72BB#E0012733007D0100
(1626182778.106071) can0 0CFF72D7#E0012733007D0100
(1626182778.107192) can0 0CFF72F3#E0012733007D0100
(1626182778.124488) can0 0CFF72B1#E0012733007D0100
(1626182778.124955) can0 0CFF72B5#E0012733007D0100
(1626182778.125528) can0 0CFF72BB#E0012733007D0100
(1626182778.126089) can0 0CFF72D7#E0012733007D0100
(1626182778.127202) can0 0CFF72F3#E0012733007D0100
(1626182778.144411) can0 0CFF72B1#E0012733007D0100
(1626182778.144955) can0 0CFF72B5#E0012733007D0100
(1626182778.145515) can0 0CFF72BB#E0012733007D0100
(1626182778.146082) can0 0CFF72D7#E0012733007D0100
(1626182778.147206) can0 0CFF72F3#E0012733007D0100
(1626182778.164418) can0 0CFF72B1#E0012733007D0100
(1626182778.164969) can0 0CFF72B5#E0012733007D0100
(1626182778.165520) can0 0CFF72BB#E0012733007D0100
(1626182778.166089) can0 0CFF72D7#E0012733007D0100
(1626182778.167200) can0 0CFF72F3#E0012733007D0100
(1626182778.167812) can0 0CFF73B1#EB99EB99D03E0000
(1626182778.168361) can0 0CFF73B5#EB99EB99D03E0000
(1626182778.168871) can0 0CFF73BB#EB99EB99D03E0000
(1626182778.169439) can0 0CFF73D7#EB99EB99D03E0000
(1626182778.170533) can0 0CFF73F3#EB99EB99D03E0000
(1626182778.171110) can0 0CFF77B1#9A199A1920000000
(1626182778.171660) can0 0CFF77B5#9A199A1920000000
(1626182778.172210) can0 0CFF77BB#9A199A1920000000
(1626182778.172805) can0 0CFF77D7#9A199A1920000000
(1626182778.173879) can0 0CFF77F3#9A199A1920000000
(1626182778.174429) can0 0CFF78B1#2C012C012C010300
(1626182778.174998) can0 0CFF78B5#2C012C012C010300
(1626182778.175564) can0 0CFF78BB#2C012C012C010300
(1626182778.176113) can0 0CFF78D7#2C012C012C010300
(1626182778.177247) can0 0CFF78F3#2C012C012C010300
(1626182778.181709) can0 18FFD9B1#1987EA88EA88403D
(1626182778.182258) can0 18FFD9B5#1987EA88EA88403D
(1626182778.182806) can0 18FFD9BB#1987EA88EA88403D
(1626182778.183355) can0 18FFD9D7#1987EA88EA88403D
(1626182778.184450) can0 0CFF72B1#E0012733007D0100
(1626182778.185001) can0 0CFF72B5#E0012733007D0100
(1626182778.185566) can0 0CFF72BB#E0012733007D0100
(1626182778.186125) can0 0CFF72D7#E0012733007D0100
(1626182778.187240) can0 0CFF72F3#E0012733007D0100
(1626182778.187805) can0 18FFD9F3#1987EA88EA88403D
(1626182778.188341) can0 18FFDFB1#D084A08CA08C0000
(1626182778.188920) can0 18FFDFB5#D084A08CA08C0000
(1626182778.189467) can0 18FFDFBB#D084A08CA08C0000
(1626182778.190035) can0 18FFDFD7#B09AA08CA08C0000
(1626182778.191142) can0 18FFDFF3#D084A08CA08C0000
(1626182778.191742) can0 18FFE0B1#0000000000000000
(1626182778.192336) can0 18FFE0B5#0000000000000000
(1626182778.192980) can0 18FFE0BB#0000000000000000
(1626182778.193518) can0 18FFE0D7#0000000000000000
(1626182778.194722) can0 18FFE0F3#0000000000000000
(1626182778.195306) can0 18FFE1B1#0000000000000000
(1626182778.195882) can0 18FFE1B5#0000000000000000
(1626182778.196475) can0 18FFE1BB#0000000000000000
(1626182778.197056) can0 18FFE1D7#0000000000000000
(1626182778.198250) can0 18FFE1F3#0000000000000000
(1626182778.204397) can0 0CFF72B1#E0012733007D0100
(1626182778.204957) can0 0CFF72B5#E0012733007D0100
(1626182778.205521) can0 0CFF72BB#E0012733007D0100
(1626182778.206088) can0 0CFF72D7#E0012733007D0100
(1626182778.207203) can0 0CFF72F3#E0012733007D0100
(1626182778.224410) can0 0CFF72B1#E0012733007D0100
(1626182778.224957) can0 0CFF72B5#E0012733007D0100
(1626182778.225514) can0 0CFF72BB#E0012733007D0100
(1626182778.226068) can0 0CFF72D7#E0012733007D0100
(1626182778.227223) can0 0CFF72F3#E0012733007D0100
(1626182778.244423) can0 0CFF72B1#E0012733007D0100
(1626182778.244964) can0 0CFF72B5#E0012733007D0100
(1626182778.245518) can0 0CFF72BB#E0012733007D0100
(1626182778.246073) can0 0CFF72D7#E0012733007D0100
(1626182778.247210) can0 0CFF72F3#E0012733007D0100
(1626182778.264419) can0 0CFF72B1#E0012733007D0100
(1626182778.264959) can0 0CFF72B5#E0012733007D0100
(1626182778.265522) can0 0CFF72BB#E0012733007D0100
(1626182778.266077) can0 0CFF72D7#E0012733007D0100
(1626182778.267189) can0 0CFF72F3#E0012733007D0100
(1626182778.267817) can0 0CFF73B1#EB99EB99D03E0000
(1626182778.268317) can0 0CFF73B5#EB99EB99D03E0000
(1626182778.268856) can0 0CFF73BB#EB99EB99D03E0000
(1626182778.269423) can0 0CFF73D7#EB99EB99D03E0000
(1626182778.270544) can0 0CFF73F3#EB99EB99D03E0000
(1626182778.271145) can0 0CFF77B1#9A199A1920000000
(1626182778.271645) can0 0CFF77B5#9A199A1920000000
(1626182778.272204) can0 0CFF77BB#9A199A1920000000
(1626182778.272821) can0 0CFF77D7#9A199A1920000000
(1626182778.273881) can0 0CFF77F3#9A199A1920000000
(1626182778.277821) can0 18FFD9B1#1987EA88EA88403D
(1626182778.278309) can0 18FFD9B5#1987EA88EA88403D
(1626182778.278856) can0 18FFD9BB#1987EA88EA88403D
(1626182778.279397) can0 18FFD9D7#1987EA88EA88403D
(1626182778.280503) can0 18FFD9F3#1987EA88EA88403D
(1626182778.284405) can0 0CFF72B1#E0012733007D0100
(1626182778.284953) can0 0CFF72B5#E0012733007D0100
(1626182778.285516) can0 0CFF72BB#E0012733007D0100
(1626182778.286091) can0 0CFF72D7#E0012733007D0100
(1626182778.287203) can0 0CFF72F3#E0012733007D0100
(1626182778.304406) can0 0CFF72B1#E0012733007D0100
(1626182778.304968) can0 0CFF72B5#E0012733007D0100
(1626182778.305518) can0 0CFF72BB#E0012733007D0100
(1626182778.306083) can0 0CFF72D7#E0012733007D0100
(1626182778.307198) can0 0CFF72F3#E0012733007D0100
(1626182778.324424) can0 0CFF72B1#E0012733007D0100
(1626182778.325003) can0 0CFF72B5#E0012733007D0100
(1626182778.325508) can0 0CFF72BB#E0012733007D0100
(1626182778.326081) can0 0CFF72D7#E0012733007D0100
(1626182778.327197) can0 0CFF72F3#E0012733007D0100
(1626182778.344411) can0 0CFF72B1#E0012733007D0100
(1626182778.344953) can0 0CFF72B5#E0012733007D0100
(1626182778.345520) can0 0CFF72BB#E0012733007D0100
(1626182778.346079) can0 0CFF72D7#E0012733007D0100
(1626182778.347204) can0 0CFF72F3#E0012733007D0100
(1626182778.364421) can0 0CFF72B1#E0012733007D0100
(1626182778.364961) can0 0CFF72B5#E0012733007D0100
(1626182778.365526) can0 0CFF72BB#E0012733007D0100
(1626182778.366086) can0 0CFF72D7#E0012733007D0100
(1626182778.367217) can0 0CFF72F3#E0012733007D0100
(1626182778.367759) can0 0CFF73B1#EB99EB99D03E0000
(1626182778.368332) can0 0CFF73B5#EB99EB99D03E0000
(1626182778.368873) can0 0CFF73BB#EB99EB99D03E0000
(1626182778.369431) can0 0CFF73D7#EB99EB99D03E0000
(1626182778.370542) can0 0CFF73F3#EB99EB99D03E0000
(1626182778.371101) can0 0CFF77B1#9A199A1920000000
(1626182778.371658) can0 0CFF77B5#9A199A1920000000
(1626182778.372216) can0 0CFF77BB#9A199A1920000000
(1626182778.372758) can0 0CFF77D7#9A199A1920000000
(1626182778.373909) can0 0CFF77F3#9A199A1920000000
(1626182778.377763) can0 18FFD9B1#1987EA88EA88403D
(1626182778.378314) can0 18FFD9B5#1987EA88EA88403D
(1626182778.378922) can0 18FFD9BB#1987EA88EA88403D
(1626182778.379397) can0 18FFD9D7#1987EA88EA88403D
(1626182778.380505) can0 18FFD9F3#1987EA88EA88403D
(1626182778.384414) can0 0CFF72B1#E0012733007D0100
(1626182778.384959) can0 0CFF72B5#E0012733007D0100
(1626182778.385516) can0 0CFF72BB#E0012733007D0100
(1626182778.386079) can0 0CFF72D7#E0012733007D0100
(1626182778.387207) can0 0CFF72F3#E0012733007D0100
(1626182778.404404) can0 0CFF72B1#E0012733007D0100
(1626182778.404956) can0 0CFF72B5#E0012733007D0100
(1626182778.405518) can0 0CFF72BB#E0012733007D0100
(1626182778.406084) can0 0CFF72D7#E0012733007D0100
(1626182778.407209) can0 0CFF72F3#E0012733007D0100
(1626182778.424413) can0 0CFF72B1#E0012733007D0100
(1626182778.424964) can0 0CFF72B5#E0012733007D0100
(1626182778.425518) can0 0CFF72BB#E0012733007D0100
(1626182778.426087) can0 0CFF72D7#E0012733007D0100
(1626182778.427197) can0 0CFF72F3#E0012733007D0100
(1626182778.444405) can0 0CFF72B1#E0012733007D0100
(1626182778.444961) can0 0CFF72B5#E0012733007D0100
(1626182778.445521) can0 0CFF72BB#E0012733007D0100
(1626182778.446087) can0 0CFF72D7#E0012733007D0100
(1626182778.447199) can0 0CFF72F3#E0012733007D0100
(1626182778.464405) can0 0CFF72B1#E0012733007D0100
(1626182778.464968) can0 0CFF72B5#E0012733007D0100
(1626182778.465513) can0 0CFF72BB#E0012733007D0100
(1626182778.466094) can0 0CFF72D7#E0012733007D0100
(1626182778.467201) can0 0CFF72F3#E0012733007D0100
(1626182778.467768) can0 0CFF73B1#EB99EB99D03E0000
(1626182778.468323) can0 0CFF73B5#EB99EB99D03E0000
(1626182778.468870) can0 0CFF73BB#EB99EB99D03E0000
(1626182778.469420) can0 0CFF73D7#EB99EB99D03E0000
(1626182778.470537) can0 0CFF73F3#EB99EB99D03E0000
(1626182778.471090) can0 0CFF77B1#9A199A1920000000
(1626182778.471661) can0 0CFF77B5#9A199A1920000000
(1626182778.472219) can0 0CFF77BB#9A199A1920000000
(1626182778.472767) can0 0CFF77D7#9A199A1920000000
(1626182778.473889) can0 0CFF77F3#9A199A1920000000
(1626182778.477755) can0 18FFD9B1#1987EA88EA88403D
(1626182778.478324) can0 18FFD9B5#1987EA88EA88403D
(1626182778.478875) can0 18FFD9BB#1987EA88EA88403D
(1626182778.479403) can0 18FFD9D7#1987EA88EA88403D
(1626182778.480500) can0 18FFD9F3#1987EA88EA88403D
(1626182778.484415) can0 0CFF72B1#E0012733007D0100
(1626182778.484968) can0 0CFF72B5#E0012733007D0100
(1626182778.485517) can0 0CFF72BB#E0012733007D0100
(1626182778.486083) can0 0CFF72D7#E0012733007D0100
(1626182778.487201) can0 0CFF72F3#E0012733007D0100
(1626182778.504396) can0 0CFF72B1#E0012733007D0100
(1626182778.504974) can0 0CFF72B5#E0012733007D0100
(1626182778.505518) can0 0CFF72BB#E0012733007D0100
(1626182778.506130) can0 0CFF72D7#E0012733007D0100
(1626182778.507208) can0 0CFF72F3#E0012733007D0100
(1626182778.524419) can0 0CFF72B1#E0012733007D0100
(1626182778.524980) can0 0CFF72B5#E0012733007D0100
(1626182778.525564) can0 0CFF72BB#E0012733007D0100
(1626182778.526074) can0 0CFF72D7#E0012733007D0100
(1626182778.527203) can0 0CFF72F3#E0012733007D0100
(1626182778.544414) can0 0CFF72B1#E0012733007D0100
(1626182778.544981) can0 0CFF72B5#E0012733007D0100
(1626182778.545533) can0 0CFF72BB#E0012733007D0100
(1626182778.546078) can0 0CFF72D7#E0012733007D0100
(1626182778.547202) can0 0CFF72F3#E0012733007D0100
(1626182778.564407) can0 0CFF72B1#E0012733007D0100
(1626182778.564977) can0 0CFF72B5#E0012733007D0100
(1626182778.565512) can0 0CFF72BB#E0012733007D0100
(1626182778.566087) can0 0CFF72D7#E0012733007D0100
(1626182778.567207) can0 0CFF72F3#E0012733007D0100
(1626182778.567777) can0 0CFF73B1#EB99EB99D03E0000
(1626182778.568340) can0 0CFF73B5#EB99EB99D03E0000
(1626182778.568878) can0 0CFF73BB#EB99EB99D03E0000
(1626182778.569434) can0 0CFF73D7#EB99EB99D03E0000
(1626182778.570540) can0 0CFF73F3#EB99EB99D03E0000
(1626182778.571103) can0 0CFF77B1#9A199A1920000000
(1626182778.571653) can0 0CFF77B5#9A199A1920000000
(1626182778.572213) can0 0CFF77BB#9A199A1920000000
(1626182778.572762) can0 0CFF77D7#9A199A1920000000
(1626182778.573892) can0 0CFF77F3#9A199A1920000000
(1626182778.577761) can0 18FFD9B1#1987EA88EA88403D
(1626182778.578321) can0 18FFD9B5#1987EA88EA88403D
(1626182778.578871) can0 18FFD9BB#1987EA88EA88403D
(1626182778.579442) can0 18FFD9D7#1987EA88EA88403D
(1626182778.580503) can0 18FFD9F3#1987EA88EA88403D
(1626182778.584438) can0 0CFF72B1#E0012733007D0100
(1626182778.584958) can0 0CFF72B5#E0012733007D0100
(1626182778.585522) can0 0CFF72BB#E0012733007D0100
(1626182778.586097) can0 0CFF72D7#E0012733007D0100
(1626182778.587207) can0 0CFF72F3#E0012733007D0100
